Freq.	V(vc)
1.00000000000000e+000	(-4.44321830882071e+000dB,-9.57470735364158e+001°)
1.02329299228075e+000	(-4.24526180207702e+000dB,-9.58800184034297e+001°)
1.04712854805090e+000	(-4.04740057214246e+000dB,-9.60159946076342e+001°)
1.07151930523761e+000	(-3.84963901100907e+000dB,-9.61550681533744e+001°)
1.09647819614318e+000	(-3.65198170833990e+000dB,-9.62973062614177e+001°)
1.12201845430196e+000	(-3.45443345990892e+000dB,-9.64427773753211e+001°)
1.14815362149688e+000	(-3.25699927635756e+000dB,-9.65915511664940e+001°)
1.17489755493953e+000	(-3.05968439228133e+000dB,-9.67436985378352e+001°)
1.20226443461741e+000	(-2.86249427563761e+000dB,-9.68992916258155e+001°)
1.23026877081238e+000	(-2.66543463750098e+000dB,-9.70584038008710e+001°)
1.25892541179417e+000	(-2.46851144216176e+000dB,-9.72211096659609e+001°)
1.28824955169313e+000	(-2.27173091757409e+000dB,-9.73874850531368e+001°)
1.31825673855641e+000	(-2.07509956616088e+000dB,-9.75576070179619e+001°)
1.34896288259165e+000	(-1.87862417598444e+000dB,-9.77315538316068e+001°)
1.38038426460288e+000	(-1.68231183227767e+000dB,-9.79094049704411e+001°)
1.41253754462275e+000	(-1.48616992934844e+000dB,-9.80912411029293e+001°)
1.44543977074593e+000	(-1.29020618285109e+000dB,-9.82771440736268e+001°)
1.47910838816821e+000	(-1.09442864243480e+000dB,-9.84671968840668e+001°)
1.51356124843621e+000	(-8.98845704761569e-001dB,-9.86614836703104e+001°)
1.54881661891248e+000	(-7.03466126892158e-001dB,-9.88600896769275e+001°)
1.58489319246111e+000	(-5.08299040041891e-001dB,-9.90631012271619e+001°)
1.62181009735893e+000	(-3.13353963700193e-001dB,-9.92706056890224e+001°)
1.65958690743756e+000	(-1.18640820098977e-001dB,-9.94826914370309e+001°)
1.69824365246174e+000	(7.58300509699379e-002dB,-9.96994478093471e+001°)
1.73780082874937e+000	(2.70047877000564e-001dB,-9.99209650599782e+001°)
1.77827941003892e+000	(4.64001437305852e-001dB,-1.00147334305769e+002°)
1.81970085860998e+000	(6.57679047242904e-001dB,-1.00378647467860e+002°)
1.86208713666287e+000	(8.51068542156784e-001dB,-1.00614997207288e+002°)
1.90546071796325e+000	(1.04415726107043e+000dB,-1.00856476854391e+002°)
1.94984459975804e+000	(1.23693203013404e+000dB,-1.01103180331682e+002°)
1.99526231496888e+000	(1.42937914588805e+000dB,-1.01355202069830e+002°)
2.04173794466953e+000	(1.62148435834870e+000dB,-1.01612636916390e+002°)
2.08929613085404e+000	(1.81323285397886e+000dB,-1.01875580036925e+002°)
2.13796208950223e+000	(2.00460923857785e+000dB,-1.02144126808128e+002°)
2.18776162394955e+000	(2.19559752014362e+000dB,-1.02418372702599e+002°)
2.23872113856834e+000	(2.38618109176056e+000dB,-1.02698413164869e+002°)
2.29086765276777e+000	(2.57634271458478e+000dB,-1.02984343478326e+002°)
2.34422881531992e+000	(2.76606450097820e+000dB,-1.03276258622656e+002°)
2.39883291901949e+000	(2.95532789788756e+000dB,-1.03574253121430e+002°)
2.45470891568503e+000	(3.14411367053113e+000dB,-1.03878420879501e+002°)
2.51188643150958e+000	(3.33240188649376e+000dB,-1.04188855009857e+002°)
2.57039578276886e+000	(3.52017190032533e+000dB,-1.04505647649604e+002°)
2.63026799189538e+000	(3.70740233874390e+000dB,-1.04828889764781e+002°)
2.69153480392691e+000	(3.89407108656041e+000dB,-1.05158670943743e+002°)
2.75422870333816e+000	(4.08015527344292e+000dB,-1.05495079178840e+002°)
2.81838293126445e+000	(4.26563126164942e+000dB,-1.05838200636212e+002°)
2.88403150312660e+000	(4.45047463487187e+000dB,-1.06188119413525e+002°)
2.95120922666638e+000	(4.63466018832926e+000dB,-1.06544917285534e+002°)
3.01995172040201e+000	(4.81816192027450e+000dB,-1.06908673437419e+002°)
3.09029543251359e+000	(5.00095302506898e+000dB,-1.07279464185905e+002°)
3.16227766016837e+000	(5.18300588799784e+000dB,-1.07657362688240e+002°)
3.23593656929628e+000	(5.36429208200768e+000dB,-1.08042438639191e+002°)
3.31131121482591e+000	(5.54478236655136e+000dB,-1.08434757956319e+002°)
3.38844156139202e+000	(5.72444668872235e+000dB,-1.08834382453853e+002°)
3.46736850452531e+000	(5.90325418688938e+000dB,-1.09241369505641e+002°)
3.54813389233575e+000	(6.08117319702088e+000dB,-1.09655771697725e+002°)
3.63078054770101e+000	(6.25817126191199e+000dB,-1.10077636471228e+002°)
3.71535229097172e+000	(6.43421514351596e+000dB,-1.10507005756376e+002°)
3.80189396320560e+000	(6.60927083858630e+000dB,-1.10943915598617e+002°)
3.89045144994280e+000	(6.78330359784244e+000dB,-1.11388395777919e+002°)
3.98107170553496e+000	(6.95627794884797e+000dB,-1.11840469422524e+002°)
4.07380277804112e+000	(7.12815772280929e+000dB,-1.12300152618564e+002°)
4.16869383470335e+000	(7.29890608547958e+000dB,-1.12767454017113e+002°)
4.26579518801592e+000	(7.46848557234034e+000dB,-1.13242374440421e+002°)
4.36515832240165e+000	(7.63685812823042e+000dB,-1.13724906489244e+002°)
4.46683592150962e+000	(7.80398515156855e+000dB,-1.14215034153345e+002°)
4.57088189614874e+000	(7.96982754329339e+000dB,-1.14712732427416e+002°)
4.67735141287197e+000	(8.13434576063124e+000dB,-1.15217966934818e+002°)
4.78630092322637e+000	(8.29749987576304e+000dB,-1.15730693561709e+002°)
4.89778819368445e+000	(8.45924963944472e+000dB,-1.16250858104253e+002°)
5.01187233627271e+000	(8.61955454959357e+000dB,-1.16778395931745e+002°)
5.12861383991364e+000	(8.77837392481832e+000dB,-1.17313231668603e+002°)
5.24807460249771e+000	(8.93566698283137e+000dB,-1.17855278898264e+002°)
5.37031796370252e+000	(9.09139292364371e+000dB,-1.18404439892100e+002°)
5.49540873857623e+000	(9.24551101738393e+000dB,-1.18960605366517e+002°)
5.62341325190348e+000	(9.39798069655080e+000dB,-1.19523654271403e+002°)
5.75439937337156e+000	(9.54876165244777e+000dB,-1.20093453613101e+002°)
5.88843655355588e+000	(9.69781393549884e+000dB,-1.20669858315004e+002°)
6.02559586074356e+000	(9.84509805909395e+000dB,-1.21252711118803e+002°)
6.16595001861481e+000	(9.99057510655683e+000dB,-1.21841842529266e+002°)
6.30957344480192e+000	(1.01342068407777e+001dB,-1.22437070805283e+002°)
6.45654229034654e+000	(1.02759558160012e+001dB,-1.23038201999677e+002°)
6.60693448007594e+000	(1.04157854912061e+001dB,-1.23645030050024e+002°)
6.76082975391980e+000	(1.05536603444751e+001dB,-1.24257336922439e+002°)
6.91830970918935e+000	(1.06895459877065e+001dB,-1.24874892809934e+002°)
7.07945784384136e+000	(1.08234092809764e+001dB,-1.25497456386555e+002°)
7.24435960074988e+000	(1.09552184458336e+001dB,-1.26124775118126e+002°)
7.41310241300916e+000	(1.10849431767886e+001dB,-1.26756585629933e+002°)
7.58577575029182e+000	(1.12125547502248e+001dB,-1.27392614131211e+002°)
7.76247116628690e+000	(1.13380261299625e+001dB,-1.28032576895821e+002°)
7.94328234724279e+000	(1.14613320686981e+001dB,-1.28676180797935e+002°)
8.12830516164097e+000	(1.15824492045525e+001dB,-1.29323123901050e+002°)
8.31763771102669e+000	(1.17013561519710e+001dB,-1.29973096098107e+002°)
8.51138038202374e+000	(1.18180335862534e+001dB,-1.30625779799967e+002°)
8.70963589956078e+000	(1.19324643210211e+001dB,-1.31280850668970e+002°)
8.91250938133743e+000	(1.20446333779741e+001dB,-1.31937978393837e+002°)
9.12010839355907e+000	(1.21545280483527e+001dB,-1.32596827501688e+002°)
9.33254300796988e+000	(1.22621379455638e+001dB,-1.33257058202556e+002°)
9.54992586021433e+000	(1.23674550485226e+001dB,-1.33918327261374e+002°)
9.77237220955808e+000	(1.24704737353268e+001dB,-1.34580288892116e+002°)
9.99999999999997e+000	(1.25711908069555e+001dB,-1.35242595668511e+002°)
1.02329299228075e+001	(1.26696055007931e+001dB,-1.35904899445519e+002°)
1.04712854805090e+001	(1.27657194938452e+001dB,-1.36566852285690e+002°)
1.07151930523760e+001	(1.28595368956292e+001dB,-1.37228107384401e+002°)
1.09647819614318e+001	(1.29510642307923e+001dB,-1.37888319988031e+002°)
1.12201845430196e+001	(1.30403104116193e+001dB,-1.38547148299206e+002°)
1.14815362149688e+001	(1.31272867006748e+001dB,-1.39204254363365e+002°)
1.17489755493953e+001	(1.32120066639088e+001dB,-1.39859304931192e+002°)
1.20226443461741e+001	(1.32944861146385e+001dB,-1.40511972291658e+002°)
1.23026877081238e+001	(1.33747430488915e+001dB,-1.41161935070831e+002°)
1.25892541179416e+001	(1.34527975726655e+001dB,-1.41808878991958e+002°)
1.28824955169313e+001	(1.35286718217167e+001dB,-1.42452497592778e+002°)
1.31825673855640e+001	(1.36023898745397e+001dB,-1.43092492896492e+002°)
1.34896288259165e+001	(1.36739776592475e+001dB,-1.43728576033326e+002°)
1.38038426460288e+001	(1.37434628550817e+001dB,-1.44360467810113e+002°)
1.41253754462275e+001	(1.38108747893241e+001dB,-1.44987899225902e+002°)
1.44543977074592e+001	(1.38762443303699e+001dB,-1.45610611932074e+002°)
1.47910838816820e+001	(1.39396037777465e+001dB,-1.46228358636026e+002°)
1.51356124843620e+001	(1.40009867498482e+001dB,-1.46840903447977e+002°)
1.54881661891248e+001	(1.40604280701429e+001dB,-1.47448022170932e+002°)
1.58489319246111e+001	(1.41179636525820e+001dB,-1.48049502534354e+002°)
1.62181009735892e+001	(1.41736303869331e+001dB,-1.48645144372486e+002°)
1.65958690743755e+001	(1.42274660246958e+001dB,-1.49234759748713e+002°)
1.69824365246174e+001	(1.42795090662388e+001dB,-1.49818173027686e+002°)
1.73780082874937e+001	(1.43297986497524e+001dB,-1.50395220897298e+002°)
1.77827941003892e+001	(1.43783744425466e+001dB,-1.50965752342836e+002°)
1.81970085860998e+001	(1.44252765351964e+001dB,-1.51529628575925e+002°)
1.86208713666286e+001	(1.44705453389657e+001dB,-1.52086722921034e+002°)
1.90546071796324e+001	(1.45142214869023e+001dB,-1.52636920662514e+002°)
1.94984459975804e+001	(1.45563457389284e+001dB,-1.53180118855195e+002°)
1.99526231496887e+001	(1.45969588912179e+001dB,-1.53716226101709e+002°)
2.04173794466952e+001	(1.46361016900796e+001dB,-1.54245162299686e+002°)
2.08929613085403e+001	(1.46738147505336e+001dB,-1.54766858362008e+002°)
2.13796208950222e+001	(1.47101384797101e+001dB,-1.55281255913271e+002°)
2.18776162394954e+001	(1.47451130051550e+001dB,-1.55788306965531e+002°)
2.23872113856833e+001	(1.47787781080988e+001dB,-1.56287973576362e+002°)
2.29086765276776e+001	(1.48111731616814e+001dB,-1.56780227492117e+002°)
2.34422881531991e+001	(1.48423370741191e+001dB,-1.57265049779188e+002°)
2.39883291901948e+001	(1.48723082367445e+001dB,-1.57742430445908e+002°)
2.45470891568502e+001	(1.49011244768326e+001dB,-1.58212368057604e+002°)
2.51188643150957e+001	(1.49288230151023e+001dB,-1.58674869347145e+002°)
2.57039578276885e+001	(1.49554404277564e+001dB,-1.59129948823169e+002°)
2.63026799189537e+001	(1.49810126129034e+001dB,-1.59577628378001e+002°)
2.69153480392690e+001	(1.50055747612006e+001dB,-1.60017936897122e+002°)
2.75422870333815e+001	(1.50291613305207e+001dB,-1.60450909871862e+002°)
2.81838293126444e+001	(1.50518060244698e+001dB,-1.60876589016830e+002°)
2.88403150312659e+001	(1.50735417745431e+001dB,-1.61295021893450e+002°)
2.95120922666637e+001	(1.50944007257218e+001dB,-1.61706261540786e+002°)
3.01995172040200e+001	(1.51144142253015e+001dB,-1.62110366114709e+002°)
3.09029543251358e+001	(1.51336128147532e+001dB,-1.62507398536316e+002°)
3.16227766016837e+001	(1.51520262243953e+001dB,-1.62897426150361e+002°)
3.23593656929627e+001	(1.51696833706906e+001dB,-1.63280520394344e+002°)
3.31131121482590e+001	(1.51866123559568e+001dB,-1.63656756478775e+002°)
3.38844156139201e+001	(1.52028404702976e+001dB,-1.64026213079032e+002°)
3.46736850452530e+001	(1.52183941955706e+001dB,-1.64388972039112e+002°)
3.54813389233574e+001	(1.52332992112004e+001dB,-1.64745118087498e+002°)
3.63078054770100e+001	(1.52475804016716e+001dB,-1.65094738565264e+002°)
3.71535229097171e+001	(1.52612618655226e+001dB,-1.65437923166477e+002°)
3.80189396320559e+001	(1.52743669256934e+001dB,-1.65774763690886e+002°)
3.89045144994279e+001	(1.52869181410614e+001dB,-1.66105353808800e+002°)
3.98107170553495e+001	(1.52989373190379e+001dB,-1.66429788838053e+002°)
4.07380277804111e+001	(1.53104455290722e+001dB,-1.66748165532843e+002°)
4.16869383470333e+001	(1.53214631169584e+001dB,-1.67060581884260e+002°)
4.26579518801591e+001	(1.53320097198060e+001dB,-1.67367136932222e+002°)
4.36515832240164e+001	(1.53421042815797e+001dB,-1.67667930588539e+002°)
4.46683592150961e+001	(1.53517650690993e+001dB,-1.67963063470812e+002°)
4.57088189614873e+001	(1.53610096884069e+001dB,-1.68252636746812e+002°)
4.67735141287196e+001	(1.53698551014159e+001dB,-1.68536751989015e+002°)
4.78630092322636e+001	(1.53783176427596e+001dB,-1.68815511038923e+002°)
4.89778819368444e+001	(1.53864130367724e+001dB,-1.69089015880817e+002°)
5.01187233627270e+001	(1.53941564145288e+001dB,-1.69357368524557e+002°)
5.12861383991362e+001	(1.54015623308894e+001dB,-1.69620670897069e+002°)
5.24807460249770e+001	(1.54086447814892e+001dB,-1.69879024742137e+002°)
5.37031796370250e+001	(1.54154172196332e+001dB,-1.70132531528133e+002°)
5.49540873857622e+001	(1.54218925730414e+001dB,-1.70381292363318e+002°)
5.62341325190346e+001	(1.54280832604155e+001dB,-1.70625407918339e+002°)
5.75439937337154e+001	(1.54340012077843e+001dB,-1.70864978355593e+002°)
5.88843655355586e+001	(1.54396578646063e+001dB,-1.71100103265079e+002°)
6.02559586074355e+001	(1.54450642195972e+001dB,-1.71330881606425e+002°)
6.16595001861479e+001	(1.54502308162597e+001dB,-1.71557411656743e+002°)
6.30957344480190e+001	(1.54551677681005e+001dB,-1.71779790964008e+002°)
6.45654229034652e+001	(1.54598847735143e+001dB,-1.71998116305638e+002°)
6.60693448007593e+001	(1.54643911303232e+001dB,-1.72212483651989e+002°)
6.76082975391978e+001	(1.54686957499603e+001dB,-1.72422988134479e+002°)
6.91830970918933e+001	(1.54728071712849e+001dB,-1.72629724018062e+002°)
7.07945784384134e+001	(1.54767335740310e+001dB,-1.72832784677784e+002°)
7.24435960074986e+001	(1.54804827918768e+001dB,-1.73032262579192e+002°)
7.41310241300914e+001	(1.54840623251336e+001dB,-1.73228249262328e+002°)
7.58577575029180e+001	(1.54874793530567e+001dB,-1.73420835329103e+002°)
7.76247116628688e+001	(1.54907407457728e+001dB,-1.73610110433820e+002°)
7.94328234724277e+001	(1.54938530758274e+001dB,-1.73796163276640e+002°)
8.12830516164095e+001	(1.54968226293561e+001dB,-1.73979081599810e+002°)
8.31763771102667e+001	(1.54996554168780e+001dB,-1.74158952186444e+002°)
8.51138038202372e+001	(1.55023571837211e+001dB,-1.74335860861705e+002°)
8.70963589956076e+001	(1.55049334200794e+001dB,-1.74509892496203e+002°)
8.91250938133741e+001	(1.55073893707075e+001dB,-1.74681131011469e+002°)
9.12010839355905e+001	(1.55097300442628e+001dB,-1.74849659387339e+002°)
9.33254300796986e+001	(1.55119602222964e+001dB,-1.75015559671130e+002°)
9.54992586021431e+001	(1.55140844679008e+001dB,-1.75178912988462e+002°)
9.77237220955805e+001	(1.55161071340201e+001dB,-1.75339799555611e+002°)
9.99999999999995e+001	(1.55180323714371e+001dB,-1.75498298693269e+002°)
1.02329299228075e+002	(1.55198641364306e+001dB,-1.75654488841620e+002°)
1.04712854805089e+002	(1.55216061981224e+001dB,-1.75808447576609e+002°)
1.07151930523760e+002	(1.55232621455174e+001dB,-1.75960251627332e+002°)
1.09647819614318e+002	(1.55248353942413e+001dB,-1.76109976894444e+002°)
1.12201845430196e+002	(1.55263291929890e+001dB,-1.76257698469498e+002°)
1.14815362149688e+002	(1.55277466296855e+001dB,-1.76403490655164e+002°)
1.17489755493952e+002	(1.55290906373686e+001dB,-1.76547426986223e+002°)
1.20226443461741e+002	(1.55303639998036e+001dB,-1.76689580251297e+002°)
1.23026877081237e+002	(1.55315693568308e+001dB,-1.76830022515239e+002°)
1.25892541179416e+002	(1.55327092094605e+001dB,-1.76968825142124e+002°)
1.28824955169313e+002	(1.55337859247136e+001dB,-1.77106058818803e+002°)
1.31825673855640e+002	(1.55348017402212e+001dB,-1.77241793578949e+002°)
1.34896288259165e+002	(1.55357587685870e+001dB,-1.77376098827573e+002°)
1.38038426460288e+002	(1.55366590015184e+001dB,-1.77509043365946e+002°)
1.41253754462275e+002	(1.55375043137301e+001dB,-1.77640695416905e+002°)
1.44543977074592e+002	(1.55382964666343e+001dB,-1.77771122650495e+002°)
1.47910838816820e+002	(1.55390371118100e+001dB,-1.77900392209929e+002°)
1.51356124843620e+002	(1.55397277942670e+001dB,-1.78028570737816e+002°)
1.54881661891247e+002	(1.55403699555087e+001dB,-1.78155724402644e+002°)
1.58489319246110e+002	(1.55409649363901e+001dB,-1.78281918925492e+002°)
1.62181009735892e+002	(1.55415139797850e+001dB,-1.78407219606937e+002°)
1.65958690743755e+002	(1.55420182330619e+001dB,-1.78531691354147e+002°)
1.69824365246173e+002	(1.55424787503746e+001dB,-1.78655398708131e+002°)
1.73780082874936e+002	(1.55428964947669e+001dB,-1.78778405871132e+002°)
1.77827941003891e+002	(1.55432723401015e+001dB,-1.78900776734151e+002°)
1.81970085860997e+002	(1.55436070728110e+001dB,-1.79022574904574e+002°)
1.86208713666286e+002	(1.55439013934735e+001dB,-1.79143863733904e+002°)
1.90546071796323e+002	(1.55441559182228e+001dB,-1.79264706345574e+002°)
1.94984459975803e+002	(1.55443711799839e+001dB,-1.79385165662832e+002°)
1.99526231496887e+002	(1.55445476295461e+001dB,-1.79505304436689e+002°)
2.04173794466952e+002	(1.55446856364713e+001dB,-1.79625185273922e+002°)
2.08929613085403e+002	(1.55447854898370e+001dB,-1.79744870665112e+002°)
2.13796208950222e+002	(1.55448473988190e+001dB,-1.79864423012723e+002°)
2.18776162394954e+002	(1.55448714931135e+001dB,-1.79983904659204e+002°)
2.23872113856832e+002	(1.55448578231977e+001dB,1.79896622084898e+002°)
2.29086765276776e+002	(1.55448063604339e+001dB,1.79777094912803e+002°)
2.34422881531991e+002	(1.55447169970087e+001dB,1.79657451493379e+002°)
2.39883291901947e+002	(1.55445895457171e+001dB,1.79537629443016e+002°)
2.45470891568501e+002	(1.55444237395858e+001dB,1.79417566297518e+002°)
2.51188643150956e+002	(1.55442192313330e+001dB,1.79297199484022e+002°)
2.57039578276885e+002	(1.55439755926723e+001dB,1.79176466292942e+002°)
2.63026799189536e+002	(1.55436923134472e+001dB,1.79055303849960e+002°)
2.69153480392690e+002	(1.55433688006059e+001dB,1.78933649088056e+002°)
2.75422870333815e+002	(1.55430043770094e+001dB,1.78811438719608e+002°)
2.81838293126443e+002	(1.55425982800707e+001dB,1.78688609208553e+002°)
2.88403150312659e+002	(1.55421496602258e+001dB,1.78565096742633e+002°)
2.95120922666637e+002	(1.55416575792280e+001dB,1.78440837205736e+002°)
3.01995172040200e+002	(1.55411210082733e+001dB,1.78315766150341e+002°)
3.09029543251357e+002	(1.55405388259402e+001dB,1.78189818770084e+002°)
3.16227766016836e+002	(1.55399098159532e+001dB,1.78062929872469e+002°)
3.23593656929626e+002	(1.55392326647576e+001dB,1.77935033851724e+002°)
3.31131121482589e+002	(1.55385059589066e+001dB,1.77806064661840e+002°)
3.38844156139200e+002	(1.55377281822540e+001dB,1.77675955789803e+002°)
3.46736850452529e+002	(1.55368977129509e+001dB,1.77544640229040e+002°)
3.54813389233573e+002	(1.55360128202363e+001dB,1.77412050453119e+002°)
3.63078054770099e+002	(1.55350716610255e+001dB,1.77278118389707e+002°)
3.71535229097170e+002	(1.55340722762809e+001dB,1.77142775394837e+002°)
3.80189396320558e+002	(1.55330125871688e+001dB,1.77005952227501e+002°)
3.89045144994278e+002	(1.55318903909913e+001dB,1.76867579024617e+002°)
3.98107170553494e+002	(1.55307033568863e+001dB,1.76727585276395e+002°)
4.07380277804110e+002	(1.55294490212988e+001dB,1.76585899802149e+002°)
4.16869383470332e+002	(1.55281247832014e+001dB,1.76442450726607e+002°)
4.26579518801589e+002	(1.55267278990750e+001dB,1.76297165456751e+002°)
4.36515832240163e+002	(1.55252554776302e+001dB,1.76149970659250e+002°)
4.46683592150960e+002	(1.55237044742655e+001dB,1.76000792238546e+002°)
4.57088189614872e+002	(1.55220716852615e+001dB,1.75849555315639e+002°)
4.67735141287195e+002	(1.55203537416964e+001dB,1.75696184207650e+002°)
4.78630092322635e+002	(1.55185471030775e+001dB,1.75540602408223e+002°)
4.89778819368443e+002	(1.55166480506846e+001dB,1.75382732568847e+002°)
5.01187233627268e+002	(1.55146526806134e+001dB,1.75222496481178e+002°)
5.12861383991361e+002	(1.55125568965155e+001dB,1.75059815060442e+002°)
5.24807460249769e+002	(1.55103564020265e+001dB,1.74894608330016e+002°)
5.37031796370249e+002	(1.55080466928686e+001dB,1.74726795407294e+002°)
5.49540873857620e+002	(1.55056230486343e+001dB,1.74556294490922e+002°)
5.62341325190345e+002	(1.55030805242302e+001dB,1.74383022849542e+002°)
5.75439937337152e+002	(1.55004139409802e+001dB,1.74206896812143e+002°)
