Circuit: * C:\Users\Théo\Documents\Université\BAC INGE\ELEC\LELEC1530\Devoir 3\Homework3_BJT_DC_Polarisation.asc

Direct Newton iteration for .op point succeeded.
Semiconductor Device Operating Points:
                        --- Bipolar Transistors ---
Name:       q1
Model:    bc107b
Ib:       2.33e-05
Ic:       7.30e-03
Vbe:      7.15e-01
Vbc:     -1.51e+00
Vce:      2.22e+00
BetaDC:   3.13e+02
Gm:       2.82e-01
Rpi:      1.19e+03
Rx:       0.00e+00
Ro:       8.36e+03
Cbe:      1.44e-10
Cbc:      3.59e-12
Cjs:      0.00e+00
BetaAC:   3.35e+02
Cbx:      0.00e+00
Ft:       3.03e+08



Date: Mon May 03 17:30:13 2021
Total elapsed time: 0.081 seconds.

tnom = 27
temp = 27
method = trap
totiter = 5
traniter = 0
tranpoints = 0
accept = 0
rejected = 0
matrix size = 9
fillins = 0
solver = Normal
Matrix Compiler1: 394 bytes object code size
Matrix Compiler2: 667 bytes object code size
