time	V(n002)	V(n005)
0.000000000000000e+000	-5.551970e+000	-1.313115e+001
1.337457307013998e-008	-5.552148e+000	-1.309233e+001
3.120733716365995e-008	-5.552396e+000	-1.303458e+001
6.687286535026621e-008	-5.552770e+000	-1.289712e+001
1.234416323568632e-007	-5.552790e+000	-1.262100e+001
1.846473647116112e-007	-5.551905e+000	-1.222244e+001
2.686323683723929e-007	-5.550164e+000	-1.152319e+001
3.279554397529749e-007	-5.550198e+000	-1.094520e+001
3.931088549550058e-007	-5.552834e+000	-1.026287e+001
4.529427577084494e-007	-5.557028e+000	-9.629033e+000
5.897012306855555e-007	-5.567620e+000	-8.179757e+000
1.057843337478898e-006	-5.602634e+000	-3.218188e+000
2.445226217117312e-006	-5.704396e+000	1.148833e+001
2.582946683277448e-006	-5.718011e+000	1.286816e+001
2.644244328119799e-006	-5.732202e+000	1.329020e+001
2.685480672367461e-006	-5.747764e+000	1.339064e+001
2.707003317393032e-006	-5.755247e+000	1.339993e+001
2.718616526625837e-006	-5.757927e+000	1.340332e+001
2.736089983532922e-006	-5.760878e+000	1.340759e+001
2.751246551510600e-006	-5.762852e+000	1.341084e+001
2.764681485124560e-006	-5.764042e+000	1.341338e+001
2.776367350651541e-006	-5.764849e+000	1.341539e+001
2.787678832041549e-006	-5.765657e+000	1.341718e+001
2.799374130636138e-006	-5.766461e+000	1.341889e+001
2.811787570897520e-006	-5.767142e+000	1.342058e+001
2.825147523398148e-006	-5.767835e+000	1.342228e+001
2.839799905839623e-006	-5.768758e+000	1.342400e+001
2.854617724617602e-006	-5.769736e+000	1.342562e+001
2.872011235482714e-006	-5.770802e+000	1.342737e+001
2.893826058060402e-006	-5.772253e+000	1.342940e+001
2.912780495198299e-006	-5.773619e+000	1.343103e+001
2.962670658122803e-006	-5.777126e+000	1.343477e+001
2.991699101492773e-006	-5.779241e+000	1.343670e+001
3.050668686398455e-006	-5.783423e+000	1.344010e+001
3.146878897362381e-006	-5.790207e+000	1.344430e+001
3.243089108326307e-006	-5.796957e+000	1.344802e+001
3.339299319290232e-006	-5.803672e+000	1.345127e+001
3.435509530254158e-006	-5.810353e+000	1.345404e+001
3.531719741218084e-006	-5.817000e+000	1.345634e+001
3.627929952182009e-006	-5.823613e+000	1.345816e+001
3.724140163145935e-006	-5.830192e+000	1.345950e+001
4.263109533579885e-006	-5.866552e+000	1.346489e+001
4.802078904013834e-006	-5.902043e+000	1.346925e+001
5.341048274447785e-006	-5.936665e+000	1.347257e+001
5.880017644881734e-006	-5.970417e+000	1.347487e+001
6.418987015315684e-006	-6.003300e+000	1.347613e+001
6.957956385749634e-006	-6.035313e+000	1.347636e+001
7.496925756183583e-006	-6.066457e+000	1.347556e+001
1.195398118600081e-005	-6.291457e+000	1.347661e+001
1.491206678358925e-005	-6.410371e+000	1.347666e+001
1.881831678358925e-005	-6.535996e+000	1.347667e+001
2.272456678358925e-005	-6.627119e+000	1.347668e+001
2.663081678358926e-005	-6.683293e+000	1.347668e+001
3.053706678358926e-005	-6.706423e+000	1.347668e+001
3.444331678358927e-005	-6.698353e+000	1.347668e+001
3.834956678358927e-005	-6.660869e+000	1.347668e+001
4.225581678358927e-005	-6.595698e+000	1.347668e+001
4.616206678358928e-005	-6.504514e+000	1.347668e+001
5.006831678358928e-005	-6.388927e+000	1.347668e+001
5.397456678358928e-005	-6.250500e+000	1.347668e+001
5.788081678358929e-005	-6.090733e+000	1.347668e+001
6.178706678358929e-005	-5.911077e+000	1.347668e+001
6.569331678358929e-005	-5.712930e+000	1.347668e+001
6.959956678358930e-005	-5.497636e+000	1.347668e+001
7.350581678358930e-005	-5.266489e+000	1.347668e+001
8.131831678358931e-005	-4.761560e+000	1.347668e+001
8.913081678358931e-005	-4.207511e+000	1.347668e+001
9.303706678358932e-005	-3.914787e+000	1.347668e+001
9.694331678358932e-005	-3.612956e+000	1.347668e+001
1.008495667835893e-004	-3.302983e+000	1.347668e+001
1.047558167835893e-004	-2.985790e+000	1.347668e+001
1.086620667835893e-004	-2.662256e+000	1.347668e+001
1.125683167835893e-004	-2.333222e+000	1.347668e+001
1.164745667835893e-004	-1.999488e+000	1.347668e+001
1.203808167835893e-004	-1.661815e+000	1.347668e+001
1.242870667835893e-004	-1.320926e+000	1.347668e+001
1.281933167835894e-004	-9.775101e-001	1.347668e+001
1.320995667835894e-004	-6.322186e-001	1.347668e+001
1.360058167835894e-004	-2.857523e-001	1.347668e+001
1.375630657004926e-004	-1.473752e-001	1.347667e+001
1.385645661129008e-004	-5.829187e-002	1.347667e+001
1.392614734347800e-004	3.710840e-003	1.347667e+001
1.402175641745905e-004	8.876954e-002	1.347667e+001
1.405952508723505e-004	1.223710e-001	1.347667e+001
1.411661831738059e-004	1.731684e-001	1.347667e+001
1.420194871834860e-004	2.490849e-001	1.347667e+001
1.425465951295302e-004	2.959760e-001	1.347667e+001
1.433443735743335e-004	3.669362e-001	1.347667e+001
1.443160326200371e-004	4.533408e-001	1.347667e+001
1.454539828771081e-004	5.544908e-001	1.347667e+001
1.469405763419255e-004	6.865417e-001	1.347667e+001
1.487481587650105e-004	8.469338e-001	1.347667e+001
1.509802535133676e-004	1.044660e+000	1.347667e+001
1.537472275746489e-004	1.289120e+000	1.347667e+001
1.572754890640194e-004	1.599620e+000	1.347667e+001
1.611817390640194e-004	1.941550e+000	1.347667e+001
1.650879890640195e-004	2.281159e+000	1.347667e+001
1.689942390640195e-004	2.618036e+000	1.347667e+001
1.729004890640195e-004	2.951835e+000	1.347667e+001
1.768067390640195e-004	3.282239e+000	1.347667e+001
1.807129890640195e-004	3.608951e+000	1.347667e+001
1.885254890640195e-004	4.250223e+000	1.347520e+001
1.963379890640195e-004	4.873693e+000	1.346354e+001
2.002442390640195e-004	5.178204e+000	1.344488e+001
2.041504890640195e-004	5.478909e+000	1.341051e+001
2.042567711601200e-004	5.486998e+000	1.340826e+001
2.044693353523207e-004	5.503062e+000	1.339969e+001
2.048425872521143e-004	5.531247e+000	1.337910e+001
2.048717585415309e-004	5.533428e+000	1.337659e+001
2.049301011203641e-004	5.537727e+000	1.336886e+001
2.050188484006765e-004	5.544159e+000	1.335238e+001
2.050603768082781e-004	5.547034e+000	1.334033e+001
2.050897101432492e-004	5.548892e+000	1.332699e+001
2.051103999609742e-004	5.550022e+000	1.331303e+001
2.051275272750728e-004	5.550747e+000	1.329630e+001
2.051444682851355e-004	5.551203e+000	1.327308e+001
2.051652028084608e-004	5.551480e+000	1.323527e+001
2.051924111063589e-004	5.551696e+000	1.317363e+001
2.052210650235055e-004	5.551973e+000	1.309614e+001
2.052508324162749e-004	5.552308e+000	1.299876e+001
2.052943493303879e-004	5.552581e+000	1.282000e+001
2.053525766831984e-004	5.552202e+000	1.250921e+001
2.054171312741529e-004	5.550795e+000	1.206159e+001
2.054752853072610e-004	5.549228e+000	1.156120e+001
2.055279280049290e-004	5.548873e+000	1.104085e+001
2.055887891247122e-004	5.550831e+000	1.040212e+001
2.056482299577266e-004	5.554669e+000	9.769220e+000
2.057877073049848e-004	5.565349e+000	8.279905e+000
2.062140131946014e-004	5.596968e+000	3.702265e+000
2.065839234591436e-004	5.624148e+000	-3.051473e-001
2.073237439882279e-004	5.677938e+000	-8.378113e+000
2.076699037647694e-004	5.705941e+000	-1.208815e+001
2.078007051376247e-004	5.721712e+000	-1.334826e+001
2.078059098444738e-004	5.723520e+000	-1.337322e+001
2.078163192581715e-004	5.729108e+000	-1.338057e+001
2.078371380855671e-004	5.739533e+000	-1.339166e+001
2.078520243514333e-004	5.745641e+000	-1.339773e+001
2.078682387136556e-004	5.750587e+000	-1.340284e+001
2.078855629132092e-004	5.754442e+000	-1.340730e+001
2.079093335358279e-004	5.758248e+000	-1.341243e+001
2.079279244776400e-004	5.760426e+000	-1.341588e+001
2.079394557356526e-004	5.761438e+000	-1.341777e+001
2.079502783615332e-004	5.762218e+000	-1.341940e+001
2.079621178845618e-004	5.762978e+000	-1.342106e+001
2.079882772887671e-004	5.764561e+000	-1.342435e+001
2.080030448607614e-004	5.765467e+000	-1.342601e+001
2.080198682510625e-004	5.766530e+000	-1.342777e+001
2.080407087846569e-004	5.767892e+000	-1.342976e+001
2.080677071670083e-004	5.769726e+000	-1.343208e+001
2.081107330296540e-004	5.772746e+000	-1.343535e+001
2.081935282260312e-004	5.778662e+000	-1.344052e+001
2.082413098380941e-004	5.782057e+000	-1.344296e+001
2.084324308684036e-004	5.795492e+000	-1.345037e+001
2.087848796362779e-004	5.819859e+000	-1.345853e+001
2.097255926328074e-004	5.882915e+000	-1.346894e+001
2.130967187521779e-004	6.087399e+000	-1.347694e+001
2.172181711672903e-004	6.292566e+000	-1.347770e+001
2.202359345381635e-004	6.414216e+000	-1.347774e+001
2.241421845381635e-004	6.538807e+000	-1.347772e+001
2.280484345381635e-004	6.628804e+000	-1.347770e+001
2.319546845381635e-004	6.683915e+000	-1.347768e+001
2.358609345381635e-004	6.706039e+000	-1.347766e+001
2.397671845381635e-004	6.697021e+000	-1.347764e+001
2.436734345381635e-004	6.658644e+000	-1.347762e+001
2.475796845381635e-004	6.592635e+000	-1.347760e+001
2.514859345381635e-004	6.500661e+000	-1.347757e+001
2.553921845381635e-004	6.384336e+000	-1.347755e+001
2.592984345381635e-004	6.245216e+000	-1.347753e+001
2.632046845381635e-004	6.084803e+000	-1.347751e+001
2.671109345381635e-004	5.904545e+000	-1.347749e+001
2.710171845381635e-004	5.705838e+000	-1.347747e+001
2.749234345381635e-004	5.490025e+000	-1.347744e+001
2.788296845381635e-004	5.258397e+000	-1.347742e+001
2.866421845381635e-004	4.752618e+000	-1.347738e+001
2.944546845381636e-004	4.197856e+000	-1.347733e+001
2.983609345381636e-004	3.904824e+000	-1.347731e+001
3.022671845381636e-004	3.602715e+000	-1.347729e+001
3.061734345381636e-004	3.292492e+000	-1.347727e+001
3.100796845381636e-004	2.975078e+000	-1.347725e+001
3.139859345381636e-004	2.651349e+000	-1.347722e+001
3.178921845381636e-004	2.322145e+000	-1.347720e+001
3.217984345381636e-004	1.988265e+000	-1.347718e+001
3.257046845381636e-004	1.650469e+000	-1.347716e+001
3.296109345381636e-004	1.309479e+000	-1.347714e+001
3.335171845381636e-004	9.659815e-001	-1.347711e+001
3.374234345381636e-004	6.206272e-001	-1.347709e+001
3.413296845381636e-004	2.741172e-001	-1.347707e+001
3.427769711547568e-004	1.455058e-001	-1.347706e+001
3.434183930636722e-004	8.846095e-002	-1.347706e+001
3.439513773870755e-004	4.104683e-002	-1.347705e+001
3.441166679812361e-004	2.634120e-002	-1.347705e+001
3.443756885521555e-004	3.295773e-003	-1.347705e+001
3.446344924239483e-004	-1.973152e-002	-1.347705e+001
3.449700723244316e-004	-4.959036e-002	-1.347705e+001
3.453684363488546e-004	-8.502284e-002	-1.347705e+001
3.456544981458838e-004	-1.104565e-001	-1.347704e+001
3.459166208543930e-004	-1.337815e-001	-1.347704e+001
3.461898403677045e-004	-1.580957e-001	-1.347704e+001
3.469595071711727e-004	-2.265733e-001	-1.347704e+001
3.502687206272135e-004	-5.213342e-001	-1.347702e+001
3.535779340832543e-004	-8.150360e-001	-1.347700e+001
3.568871475392951e-004	-1.107679e+000	-1.347698e+001
3.601963609953359e-004	-1.399262e+000	-1.347696e+001
3.635055744513767e-004	-1.689787e+000	-1.347694e+001
3.668147879074175e-004	-1.979252e+000	-1.347692e+001
3.701240013634583e-004	-2.267658e+000	-1.347690e+001
3.740302513634583e-004	-2.604664e+000	-1.347688e+001
3.779365013634583e-004	-2.938606e+000	-1.347686e+001
3.818427513634583e-004	-3.269165e+000	-1.347684e+001
3.857490013634583e-004	-3.596044e+000	-1.347681e+001
3.935615013634583e-004	-4.237679e+000	-1.347536e+001
4.013740013634583e-004	-4.861547e+000	-1.346395e+001
4.052802513634583e-004	-5.166271e+000	-1.344615e+001
4.091865013634583e-004	-5.467234e+000	-1.341397e+001
4.093018818416829e-004	-5.476014e+000	-1.341184e+001
4.095326427981326e-004	-5.493454e+000	-1.340366e+001
4.099941647110316e-004	-5.528356e+000	-1.338113e+001
4.100264964024486e-004	-5.530778e+000	-1.337859e+001
4.100911597852827e-004	-5.535558e+000	-1.337058e+001
4.101871512180496e-004	-5.542549e+000	-1.335379e+001
4.102318502765237e-004	-5.545667e+000	-1.334142e+001
4.102624825605638e-004	-5.547629e+000	-1.332797e+001
4.102838044307473e-004	-5.548812e+000	-1.331396e+001
4.103011794428378e-004	-5.549565e+000	-1.329735e+001
4.103180129618801e-004	-5.550039e+000	-1.327463e+001
4.103389325286590e-004	-5.550347e+000	-1.323698e+001
4.103648131302293e-004	-5.550586e+000	-1.317914e+001
4.103923141895046e-004	-5.550884e+000	-1.310586e+001
4.104217476626365e-004	-5.551262e+000	-1.301166e+001
4.104629835481122e-004	-5.551635e+000	-1.284686e+001
4.105203666933373e-004	-5.551484e+000	-1.255002e+001
4.105840512930226e-004	-5.550361e+000	-1.211925e+001
4.106485539484049e-004	-5.548859e+000	-1.157325e+001
4.107023784845668e-004	-5.548673e+000	-1.104638e+001
4.107646363923469e-004	-5.550858e+000	-1.039631e+001
4.108244436707978e-004	-5.554843e+000	-9.763125e+000
4.109639916923284e-004	-5.565644e+000	-8.284254e+000
4.111822561187777e-004	-5.582007e+000	-5.971038e+000
4.114005205452271e-004	-5.598300e+000	-3.657732e+000
4.116187849716765e-004	-5.614523e+000	-1.344338e+000
4.118370493981258e-004	-5.630676e+000	9.691451e-001
4.120553138245751e-004	-5.646759e+000	3.282717e+000
4.122735782510245e-004	-5.662772e+000	5.596378e+000
4.124918426774739e-004	-5.678715e+000	7.910128e+000
4.128342545612431e-004	-5.706315e+000	1.142717e+001
4.130417123577382e-004	-5.727800e+000	1.336598e+001
4.130444326786394e-004	-5.728646e+000	1.337878e+001
4.130498733204420e-004	-5.731483e+000	1.338211e+001
4.130607546040470e-004	-5.737209e+000	1.338778e+001
4.130753297992458e-004	-5.743969e+000	1.339401e+001
4.130906813132455e-004	-5.749630e+000	1.339933e+001
4.131067950129104e-004	-5.754388e+000	1.340392e+001
4.131254403683376e-004	-5.758633e+000	1.340835e+001
4.131469645829401e-004	-5.761846e+000	1.341267e+001
4.131667138163701e-004	-5.763899e+000	1.341611e+001
4.131778878229643e-004	-5.764982e+000	1.341785e+001
4.131895774149804e-004	-5.765888e+000	1.341952e+001
4.132033779485557e-004	-5.766553e+000	1.342134e+001
4.132159094416142e-004	-5.767212e+000	1.342289e+001
4.132259477787289e-004	-5.767969e+000	1.342406e+001
4.132375819776348e-004	-5.768811e+000	1.342534e+001
4.132489480120137e-004	-5.769374e+000	1.342652e+001
4.132618224093987e-004	-5.770020e+000	1.342779e+001
4.132722882612622e-004	-5.770797e+000	1.342877e+001
4.132859231585242e-004	-5.771868e+000	1.342998e+001
4.133000250627432e-004	-5.772711e+000	1.343117e+001
4.133131859426712e-004	-5.773499e+000	1.343223e+001
4.133401073597633e-004	-5.775638e+000	1.343423e+001
4.133665467597955e-004	-5.777304e+000	1.343603e+001
4.133787123392660e-004	-5.778292e+000	1.343681e+001
4.133931233701355e-004	-5.779414e+000	1.343769e+001
4.134048267537762e-004	-5.780135e+000	1.343838e+001
4.134193926726044e-004	-5.781096e+000	1.343921e+001
4.134312105424326e-004	-5.782051e+000	1.343986e+001
4.134459168860321e-004	-5.783159e+000	1.344064e+001
4.134579351113086e-004	-5.783896e+000	1.344125e+001
4.134727932525633e-004	-5.784907e+000	1.344198e+001
4.134853593611531e-004	-5.785910e+000	1.344258e+001
4.135003470363717e-004	-5.786983e+000	1.344327e+001
4.135138392464127e-004	-5.787818e+000	1.344387e+001
4.135291061747935e-004	-5.788910e+000	1.344452e+001
4.135443343742094e-004	-5.790088e+000	1.344515e+001
4.135804916014451e-004	-5.792511e+000	1.344657e+001
4.136000502868659e-004	-5.793972e+000	1.344729e+001
4.136177698383791e-004	-5.795197e+000	1.344792e+001
4.136350400009967e-004	-5.796323e+000	1.344852e+001
4.136741339520332e-004	-5.799143e+000	1.344979e+001
4.136918201644788e-004	-5.800301e+000	1.345033e+001
4.137327977335858e-004	-5.803233e+000	1.345153e+001
4.137540266113218e-004	-5.804638e+000	1.345212e+001
4.137958675029937e-004	-5.807612e+000	1.345321e+001
4.138175909039802e-004	-5.809055e+000	1.345376e+001
4.138613983770971e-004	-5.812145e+000	1.345479e+001
4.138841319882374e-004	-5.813660e+000	1.345530e+001
4.139317363287781e-004	-5.816992e+000	1.345631e+001
4.139565796578461e-004	-5.818654e+000	1.345681e+001
4.140135340122437e-004	-5.822598e+000	1.345790e+001
4.140414559766466e-004	-5.824488e+000	1.345840e+001
4.141038331029467e-004	-5.828779e+000	1.345945e+001
4.146180373041415e-004	-5.863511e+000	1.346468e+001
4.151322415053363e-004	-5.897466e+000	1.346894e+001
4.156464457065311e-004	-5.930646e+000	1.347221e+001
4.161606499077258e-004	-5.963050e+000	1.347449e+001
4.166748541089206e-004	-5.994677e+000	1.347580e+001
4.171890583101154e-004	-6.025529e+000	1.347613e+001
4.177032625113102e-004	-6.055605e+000	1.347547e+001
4.209615761268402e-004	-6.226419e+000	1.347599e+001
4.242198897423701e-004	-6.371557e+000	1.347640e+001
4.274782033579001e-004	-6.491017e+000	1.347668e+001
4.307365169734300e-004	-6.584800e+000	1.347686e+001
4.339948305889600e-004	-6.652906e+000	1.347691e+001
4.372531442044900e-004	-6.695334e+000	1.347685e+001
4.405114578200199e-004	-6.712086e+000	1.347668e+001
4.410372834560542e-004	-6.713154e+000	1.347668e+001
4.415589917783442e-004	-6.713655e+000	1.347668e+001
4.420788264157859e-004	-6.713605e+000	1.347668e+001
4.431233710076449e-004	-6.711864e+000	1.347668e+001
4.447512696773405e-004	-6.704850e+000	1.347668e+001
4.465590059937229e-004	-6.691052e+000	1.347668e+001
4.487282502895172e-004	-6.666359e+000	1.347668e+001
4.519851876523271e-004	-6.612867e+000	1.347668e+001
4.537228582623056e-004	-6.576342e+000	1.347668e+001
4.562091401075054e-004	-6.514489e+000	1.347668e+001
4.600763361399976e-004	-6.400044e+000	1.347668e+001
4.639825861399976e-004	-6.263788e+000	1.347668e+001
4.678888361399976e-004	-6.106107e+000	1.347668e+001
4.717950861399976e-004	-5.928395e+000	1.347668e+001
4.757013361399976e-004	-5.732056e+000	1.347668e+001
4.796075861399976e-004	-5.518438e+000	1.347668e+001
4.835138361399976e-004	-5.288841e+000	1.347668e+001
4.913263361399976e-004	-4.786654e+000	1.347668e+001
4.991388361399976e-004	-4.234900e+000	1.347668e+001
5.030450861399976e-004	-3.943167e+000	1.347668e+001
5.069513361399976e-004	-3.642229e+000	1.347668e+001
5.108575861399976e-004	-3.333054e+000	1.347668e+001
5.147638361399976e-004	-3.016569e+000	1.347668e+001
5.186700861399976e-004	-2.693658e+000	1.347668e+001
5.225763361399976e-004	-2.365165e+000	1.347668e+001
5.264825861399976e-004	-2.031894e+000	1.347668e+001
5.303888361399976e-004	-1.694609e+000	1.347668e+001
5.342950861399977e-004	-1.354038e+000	1.347668e+001
5.382013361399977e-004	-1.010873e+000	1.347668e+001
5.421075861399977e-004	-6.657683e-001	1.347668e+001
5.460138361399977e-004	-3.194315e-001	1.347668e+001
5.476944969975256e-004	-1.701276e-001	1.347668e+001
5.487609310250593e-004	-7.528524e-002	1.347667e+001
5.493660211854014e-004	-2.145348e-002	1.347667e+001
5.505742893476074e-004	8.603529e-002	1.347667e+001
5.508321001892586e-004	1.089642e-001	1.347667e+001
5.510737505949738e-004	1.304596e-001	1.347667e+001
5.516822373332151e-004	1.845954e-001	1.347667e+001
5.526679890188067e-004	2.722883e-001	1.347667e+001
5.530468478161972e-004	3.059877e-001	1.347667e+001
5.539459592300605e-004	3.859540e-001	1.347667e+001
5.551744213744009e-004	4.951774e-001	1.347667e+001
5.568876006422918e-004	6.474009e-001	1.347667e+001
5.593204283431243e-004	8.632969e-001	1.347667e+001
5.609093365792003e-004	1.004075e+000	1.347667e+001
5.628840085412151e-004	1.178714e+000	1.347667e+001
5.655249508563979e-004	1.411627e+000	1.347667e+001
5.689356709881882e-004	1.711192e+000	1.347667e+001
5.728419209881882e-004	2.052355e+000	1.347667e+001
5.767481709881882e-004	2.391093e+000	1.347667e+001
5.806544209881882e-004	2.726985e+000	1.347667e+001
5.845606709881882e-004	3.059695e+000	1.347667e+001
5.884669209881882e-004	3.388911e+000	1.347667e+001
5.923731709881882e-004	3.714345e+000	1.347666e+001
5.997941199828087e-004	4.321410e+000	1.347478e+001
6.073645756801177e-004	4.923604e+000	1.346166e+001
6.112708256801177e-004	5.227273e+000	1.343490e+001
6.151770756801177e-004	5.527023e+000	1.337731e+001
6.152381108363676e-004	5.531575e+000	1.337247e+001
6.153601811488677e-004	5.540359e+000	1.335063e+001
6.154235936150789e-004	5.544659e+000	1.333008e+001
6.154565002247665e-004	5.546556e+000	1.331024e+001
6.154775432666770e-004	5.547432e+000	1.328927e+001
6.154956418462721e-004	5.547874e+000	1.326299e+001
6.155165399087848e-004	5.548134e+000	1.322334e+001
6.155416261048288e-004	5.548369e+000	1.316536e+001
6.155714640970296e-004	5.548716e+000	1.308367e+001
6.156015438932203e-004	5.549072e+000	1.298282e+001
6.156536098016561e-004	5.549310e+000	1.275834e+001
6.157190681094623e-004	5.548638e+000	1.238434e+001
6.157873711801582e-004	5.546926e+000	1.187839e+001
