time	V(in,-)	V(out)	V(in,+)
0.000000000000000e+000	2.000000e+000	1.545418e+000	0.000000e+000
5.766087359602030e-006	2.000000e+000	1.542650e+000	5.766087e-002
1.153217471920406e-005	2.000000e+000	1.540041e+000	1.153217e-001
1.729826207880609e-005	2.000000e+000	1.537592e+000	1.729826e-001
2.306434943840812e-005	2.000000e+000	1.535302e+000	2.306435e-001
2.883043679801015e-005	2.000000e+000	1.533171e+000	2.883044e-001
3.459652415761218e-005	2.000000e+000	1.531200e+000	3.459652e-001
4.036261151721420e-005	2.000000e+000	1.529388e+000	4.036261e-001
4.622198651721420e-005	2.000000e+000	1.527806e+000	4.622199e-001
5.208136151721419e-005	2.000000e+000	1.526402e+000	5.208136e-001
5.794073651721419e-005	2.000000e+000	1.525200e+000	5.794074e-001
6.380011151721420e-005	2.000000e+000	1.524254e+000	6.380011e-001
6.965948651721420e-005	2.000000e+000	1.523632e+000	6.965949e-001
7.551886151721421e-005	2.000000e+000	1.523341e+000	7.551886e-001
8.137823651721421e-005	2.000000e+000	1.523291e+000	8.137824e-001
8.723761151721422e-005	2.000000e+000	1.523363e+000	8.723761e-001
9.309698651721422e-005	2.000000e+000	1.523497e+000	9.309699e-001
9.895636151721423e-005	2.000000e+000	1.523686e+000	9.895636e-001
1.073268972315000e-004	2.000000e+000	1.523721e+000	1.073269e+000
1.156974329457857e-004	2.000000e+000	1.524208e+000	1.156974e+000
1.240679686600714e-004	2.000000e+000	1.525147e+000	1.240680e+000
1.324385043743571e-004	2.000000e+000	1.526538e+000	1.324385e+000
1.408090400886428e-004	2.000000e+000	1.528381e+000	1.408090e+000
1.491795758029286e-004	2.000000e+000	1.530676e+000	1.491796e+000
1.575501115172143e-004	2.000000e+000	1.533423e+000	1.575501e+000
1.751282365172143e-004	2.000000e+000	1.545524e+000	1.751282e+000
1.868469865172143e-004	2.000000e+000	1.561007e+000	1.868470e+000
1.927063615172143e-004	2.000000e+000	1.576624e+000	1.927064e+000
1.992981583922143e-004	2.000000e+000	1.610015e+000	1.992982e+000
2.007630021422143e-004	2.000000e+000	1.670118e+000	2.007630e+000
2.018790752924313e-004	2.000000e+000	1.889374e+000	2.018791e+000
2.029871603432916e-004	2.000000e+000	2.422248e+000	2.029872e+000
2.043030445136354e-004	2.000000e+000	3.131143e+000	2.043031e+000
2.053271701710386e-004	2.000000e+000	3.376773e+000	2.053272e+000
2.066108951734023e-004	2.000000e+000	3.407296e+000	2.066109e+000
2.130250647385164e-004	2.000000e+000	3.425797e+000	2.130251e+000
2.194392343036305e-004	2.000000e+000	3.441087e+000	2.194392e+000
2.258534038687446e-004	2.000000e+000	3.453165e+000	2.258534e+000
2.322675734338588e-004	2.000000e+000	3.462032e+000	2.322676e+000
2.386817429989729e-004	2.000000e+000	3.467688e+000	2.386817e+000
2.450959125640870e-004	2.000000e+000	3.470132e+000	2.450959e+000
2.515100821292012e-004	2.000000e+000	3.469366e+000	2.515101e+000
2.623917785577726e-004	2.000000e+000	3.472243e+000	2.623918e+000
2.732734749863440e-004	2.000000e+000	3.474513e+000	2.732735e+000
2.841551714149155e-004	2.000000e+000	3.476173e+000	2.841552e+000
2.950368678434869e-004	2.000000e+000	3.477225e+000	2.950369e+000
3.059185642720584e-004	2.000000e+000	3.477669e+000	3.059186e+000
3.168002607006298e-004	2.000000e+000	3.477503e+000	3.168003e+000
3.276819571292012e-004	2.000000e+000	3.476730e+000	3.276819e+000
5.003355452386593e-004	2.000000e+000	3.476730e+000	4.996644e+000
7.216749191170956e-004	2.000000e+000	3.476427e+000	2.783251e+000
7.392530441170957e-004	2.000000e+000	3.473489e+000	2.607470e+000
7.476235798313814e-004	2.000000e+000	3.474775e+000	2.523764e+000
7.559941155456671e-004	2.000000e+000	3.472304e+000	2.440059e+000
7.643646512599529e-004	2.000000e+000	3.466075e+000	2.356353e+000
7.727351869742386e-004	2.000000e+000	3.456088e+000	2.272648e+000
7.811057226885243e-004	2.000000e+000	3.442344e+000	2.188943e+000
7.894762584028100e-004	2.000000e+000	3.424841e+000	2.105237e+000
7.978467941170957e-004	2.000000e+000	3.403581e+000	2.021532e+000
8.000440597420957e-004	2.000000e+000	3.368862e+000	1.999559e+000
8.015909720011631e-004	2.000000e+000	3.170489e+000	1.984090e+000
8.028124508073762e-004	2.000000e+000	2.659891e+000	1.971876e+000
8.042125936785027e-004	2.000000e+000	1.864968e+000	1.957874e+000
8.049716445760929e-004	2.000000e+000	1.633070e+000	1.950284e+000
8.055196061778899e-004	2.000000e+000	1.604997e+000	1.944804e+000
8.075271445872951e-004	2.000000e+000	1.584696e+000	1.924729e+000
8.130348567463878e-004	2.000000e+000	1.570506e+000	1.869651e+000
8.185425689054806e-004	2.000000e+000	1.558592e+000	1.814574e+000
8.240502810645733e-004	2.000000e+000	1.548953e+000	1.759497e+000
8.295579932236661e-004	2.000000e+000	1.541590e+000	1.704420e+000
8.350657053827588e-004	2.000000e+000	1.536503e+000	1.649343e+000
8.405734175418515e-004	2.000000e+000	1.533691e+000	1.594266e+000
8.460811297009443e-004	2.000000e+000	1.533156e+000	1.539189e+000
8.577998797009443e-004	2.000000e+000	1.528995e+000	1.422001e+000
8.988155047009443e-004	2.000000e+000	1.523909e+000	1.011845e+000
9.046748797009443e-004	2.000000e+000	1.523665e+000	9.532512e-001
9.105342547009443e-004	2.000000e+000	1.523482e+000	8.946575e-001
9.163936297009443e-004	2.000000e+000	1.523353e+000	8.360637e-001
9.222530047009443e-004	2.000000e+000	1.523292e+000	7.774700e-001
9.281123797009443e-004	2.000000e+000	1.523361e+000	7.188762e-001
9.339717547009443e-004	2.000000e+000	1.523678e+000	6.602825e-001
9.398311297009443e-004	2.000000e+000	1.524332e+000	6.016887e-001
9.456905047009444e-004	2.000000e+000	1.525306e+000	5.430950e-001
9.515498797009444e-004	2.000000e+000	1.526532e+000	4.845012e-001
9.574092547009444e-004	2.000000e+000	1.527956e+000	4.259075e-001
9.632686297009444e-004	2.000000e+000	1.529556e+000	3.673137e-001
9.749873797009444e-004	2.000000e+000	1.533294e+000	2.501262e-001
9.925655047009444e-004	2.000000e+000	1.540546e+000	7.434496e-002
1.000000001000000e-003	2.000000e+000	1.544508e+000	0.000000e+000
1.005504546292294e-003	2.000000e+000	1.542328e+000	5.504545e-002
1.011009091584587e-003	2.000000e+000	1.540179e+000	1.100909e-001
1.016513636876880e-003	2.000000e+000	1.538063e+000	1.651364e-001
1.022018182169174e-003	2.000000e+000	1.535979e+000	2.201818e-001
1.027522727461467e-003	2.000000e+000	1.533926e+000	2.752273e-001
1.033027272753760e-003	2.000000e+000	1.531906e+000	3.302727e-001
1.038531818046054e-003	2.000000e+000	1.529918e+000	3.853182e-001
1.044391193046054e-003	2.000000e+000	1.528282e+000	4.439119e-001
1.050250568046054e-003	2.000000e+000	1.526821e+000	5.025057e-001
1.056109943046054e-003	2.000000e+000	1.525551e+000	5.610994e-001
1.061969318046054e-003	2.000000e+000	1.524518e+000	6.196932e-001
1.067828693046054e-003	2.000000e+000	1.523789e+000	6.782869e-001
1.073688068046054e-003	2.000000e+000	1.523400e+000	7.368807e-001
1.079547443046054e-003	2.000000e+000	1.523288e+000	7.954744e-001
1.085406818046054e-003	2.000000e+000	1.523332e+000	8.540682e-001
1.091266193046054e-003	2.000000e+000	1.523450e+000	9.126619e-001
1.097125568046054e-003	2.000000e+000	1.523621e+000	9.712557e-001
1.114703693046054e-003	2.000000e+000	1.524534e+000	1.147037e+000
1.120563068046054e-003	2.000000e+000	1.524849e+000	1.205631e+000
1.126422443046054e-003	2.000000e+000	1.525442e+000	1.264224e+000
1.132281818046054e-003	2.000000e+000	1.526313e+000	1.322818e+000
1.138141193046054e-003	2.000000e+000	1.527463e+000	1.381412e+000
1.144000568046054e-003	2.000000e+000	1.528892e+000	1.440006e+000
1.149859943046054e-003	2.000000e+000	1.530599e+000	1.498599e+000
1.155719318046054e-003	2.000000e+000	1.532585e+000	1.557193e+000
1.160741639474625e-003	2.000000e+000	1.534093e+000	1.607416e+000
1.165763960903197e-003	2.000000e+000	1.536894e+000	1.657640e+000
1.170786282331768e-003	2.000000e+000	1.540989e+000	1.707863e+000
1.175808603760340e-003	2.000000e+000	1.546378e+000	1.758086e+000
1.180830925188911e-003	2.000000e+000	1.553061e+000	1.808309e+000
1.185853246617483e-003	2.000000e+000	1.561038e+000	1.858532e+000
1.190875568046054e-003	2.000000e+000	1.570308e+000	1.908756e+000
1.196734943046054e-003	2.000000e+000	1.595186e+000	1.967349e+000
1.200255043042441e-003	2.000000e+000	1.840845e+000	2.002550e+000
1.202820983324665e-003	2.000000e+000	2.463362e+000	2.028210e+000
1.205280408669778e-003	2.000000e+000	3.319986e+000	2.052804e+000
1.205700995089873e-003	2.000000e+000	3.395845e+000	2.057010e+000
1.208901472963652e-003	2.000000e+000	3.413886e+000	2.089015e+000
1.212101950837430e-003	2.000000e+000	3.428716e+000	2.121019e+000
1.215302428711210e-003	2.000000e+000	3.440337e+000	2.153024e+000
1.218502906584989e-003	2.000000e+000	3.448748e+000	2.185029e+000
1.221703384458768e-003	2.000000e+000	3.453949e+000	2.217034e+000
1.224903862332546e-003	2.000000e+000	3.455941e+000	2.249039e+000
1.228104340206325e-003	2.000000e+000	3.454722e+000	2.281043e+000
1.240660143777754e-003	2.000000e+000	3.462509e+000	2.406601e+000
1.253215947349183e-003	2.000000e+000	3.468748e+000	2.532159e+000
1.265771750920611e-003	2.000000e+000	3.473440e+000	2.657717e+000
1.278327554492040e-003	2.000000e+000	3.476584e+000	2.783275e+000
1.290883358063468e-003	2.000000e+000	3.478180e+000	2.908833e+000
1.303439161634897e-003	2.000000e+000	3.478229e+000	3.034392e+000
1.315994965206326e-003	2.000000e+000	3.476730e+000	3.159950e+000
1.500335546238661e-003	2.000000e+000	3.476730e+000	4.996644e+000
1.721674920117098e-003	2.000000e+000	3.476427e+000	2.783251e+000
1.739253045117098e-003	2.000000e+000	3.473489e+000	2.607470e+000
1.747623580831383e-003	2.000000e+000	3.474775e+000	2.523764e+000
1.755994116545669e-003	2.000000e+000	3.472304e+000	2.440059e+000
1.764364652259955e-003	2.000000e+000	3.466075e+000	2.356353e+000
1.772735187974240e-003	2.000000e+000	3.456088e+000	2.272648e+000
1.781105723688526e-003	2.000000e+000	3.442344e+000	2.188943e+000
1.789476259402812e-003	2.000000e+000	3.424841e+000	2.105237e+000
1.797846795117098e-003	2.000000e+000	3.403581e+000	2.021532e+000
1.800044060742098e-003	2.000000e+000	3.368862e+000	1.999559e+000
1.801590973000804e-003	2.000000e+000	3.170489e+000	1.984090e+000
1.802812451806778e-003	2.000000e+000	2.659891e+000	1.971876e+000
1.804212594677007e-003	2.000000e+000	1.864968e+000	1.957874e+000
1.804971645575019e-003	2.000000e+000	1.633070e+000	1.950284e+000
1.805519607176889e-003	2.000000e+000	1.604997e+000	1.944804e+000
1.807527145587030e-003	2.000000e+000	1.584696e+000	1.924729e+000
1.813034857745774e-003	2.000000e+000	1.570506e+000	1.869651e+000
1.818542569904518e-003	2.000000e+000	1.558592e+000	1.814574e+000
1.824050282063262e-003	2.000000e+000	1.548953e+000	1.759497e+000
1.829557994222005e-003	2.000000e+000	1.541590e+000	1.704420e+000
1.835065706380749e-003	2.000000e+000	1.536503e+000	1.649343e+000
1.840573418539493e-003	2.000000e+000	1.533691e+000	1.594266e+000
1.846081130698237e-003	2.000000e+000	1.533156e+000	1.539189e+000
1.857799880698237e-003	2.000000e+000	1.528995e+000	1.422001e+000
1.898815505698237e-003	2.000000e+000	1.523909e+000	1.011845e+000
1.904674880698237e-003	2.000000e+000	1.523665e+000	9.532512e-001
1.910534255698237e-003	2.000000e+000	1.523482e+000	8.946575e-001
1.916393630698237e-003	2.000000e+000	1.523353e+000	8.360637e-001
1.922253005698237e-003	2.000000e+000	1.523292e+000	7.774700e-001
1.928112380698237e-003	2.000000e+000	1.523361e+000	7.188762e-001
1.933971755698237e-003	2.000000e+000	1.523678e+000	6.602825e-001
1.939831130698237e-003	2.000000e+000	1.524332e+000	6.016887e-001
1.945690505698237e-003	2.000000e+000	1.525306e+000	5.430950e-001
1.951549880698237e-003	2.000000e+000	1.526532e+000	4.845012e-001
1.957409255698237e-003	2.000000e+000	1.527956e+000	4.259075e-001
1.963268630698237e-003	2.000000e+000	1.529556e+000	3.673137e-001
1.974987380698237e-003	2.000000e+000	1.533294e+000	2.501262e-001
1.992565505698236e-003	2.000000e+000	1.540546e+000	7.434496e-002
2.000000002000002e-003	2.000000e+000	1.544508e+000	2.664535e-015
2.005504547294578e-003	2.000000e+000	1.542328e+000	5.504545e-002
2.011009092589154e-003	2.000000e+000	1.540179e+000	1.100909e-001
2.016513637883730e-003	2.000000e+000	1.538063e+000	1.651364e-001
2.022018183178307e-003	2.000000e+000	1.535979e+000	2.201818e-001
2.027522728472883e-003	2.000000e+000	1.533926e+000	2.752273e-001
2.033027273767459e-003	2.000000e+000	1.531906e+000	3.302727e-001
2.038531819062035e-003	2.000000e+000	1.529918e+000	3.853182e-001
2.044391194062035e-003	2.000000e+000	1.528282e+000	4.439119e-001
2.050250569062035e-003	2.000000e+000	1.526821e+000	5.025057e-001
2.056109944062035e-003	2.000000e+000	1.525551e+000	5.610994e-001
2.061969319062035e-003	2.000000e+000	1.524518e+000	6.196932e-001
2.067828694062034e-003	2.000000e+000	1.523789e+000	6.782869e-001
2.073688069062034e-003	2.000000e+000	1.523400e+000	7.368807e-001
2.079547444062034e-003	2.000000e+000	1.523288e+000	7.954744e-001
2.085406819062034e-003	2.000000e+000	1.523332e+000	8.540682e-001
2.091266194062033e-003	2.000000e+000	1.523450e+000	9.126619e-001
2.097125569062033e-003	2.000000e+000	1.523621e+000	9.712557e-001
2.114703694062033e-003	2.000000e+000	1.524534e+000	1.147037e+000
2.120563069062032e-003	2.000000e+000	1.524849e+000	1.205631e+000
2.126422444062032e-003	2.000000e+000	1.525442e+000	1.264224e+000
2.132281819062032e-003	2.000000e+000	1.526313e+000	1.322818e+000
2.138141194062032e-003	2.000000e+000	1.527463e+000	1.381412e+000
2.144000569062032e-003	2.000000e+000	1.528892e+000	1.440006e+000
2.149859944062031e-003	2.000000e+000	1.530599e+000	1.498599e+000
2.155719319062031e-003	2.000000e+000	1.532585e+000	1.557193e+000
2.160741640490602e-003	2.000000e+000	1.534093e+000	1.607416e+000
2.165763961919174e-003	2.000000e+000	1.536894e+000	1.657640e+000
2.170786283347745e-003	2.000000e+000	1.540989e+000	1.707863e+000
2.175808604776316e-003	2.000000e+000	1.546378e+000	1.758086e+000
2.180830926204887e-003	2.000000e+000	1.553061e+000	1.808309e+000
2.185853247633459e-003	2.000000e+000	1.561038e+000	1.858532e+000
2.190875569062030e-003	2.000000e+000	1.570308e+000	1.908756e+000
2.196734944062030e-003	2.000000e+000	1.595186e+000	1.967349e+000
2.200255044042043e-003	2.000000e+000	1.840845e+000	2.002550e+000
2.202820984320637e-003	2.000000e+000	2.463362e+000	2.028210e+000
2.205280409663839e-003	2.000000e+000	3.319986e+000	2.052804e+000
2.205700996081138e-003	2.000000e+000	3.395845e+000	2.057010e+000
2.208901473947010e-003	2.000000e+000	3.413886e+000	2.089015e+000
2.212101951812881e-003	2.000000e+000	3.428716e+000	2.121019e+000
2.215302429678753e-003	2.000000e+000	3.440337e+000	2.153024e+000
2.218502907544625e-003	2.000000e+000	3.448748e+000	2.185029e+000
2.221703385410497e-003	2.000000e+000	3.453949e+000	2.217034e+000
2.224903863276369e-003	2.000000e+000	3.455941e+000	2.249039e+000
2.228104341142241e-003	2.000000e+000	3.454722e+000	2.281043e+000
2.240660144713669e-003	2.000000e+000	3.462509e+000	2.406601e+000
2.253215948285097e-003	2.000000e+000	3.468748e+000	2.532159e+000
2.265771751856525e-003	2.000000e+000	3.473440e+000	2.657717e+000
2.278327555427953e-003	2.000000e+000	3.476584e+000	2.783275e+000
2.290883358999381e-003	2.000000e+000	3.478180e+000	2.908833e+000
2.303439162570809e-003	2.000000e+000	3.478229e+000	3.034392e+000
2.315994966142237e-003	2.000000e+000	3.476730e+000	3.159950e+000
2.500335547238663e-003	2.000000e+000	3.476730e+000	4.996644e+000
2.721674921117092e-003	2.000000e+000	3.476427e+000	2.783251e+000
2.739253046117091e-003	2.000000e+000	3.473489e+000	2.607470e+000
2.747623581831377e-003	2.000000e+000	3.474775e+000	2.523764e+000
2.755994117545662e-003	2.000000e+000	3.472304e+000	2.440059e+000
2.764364653259948e-003	2.000000e+000	3.466075e+000	2.356353e+000
2.772735188974233e-003	2.000000e+000	3.456088e+000	2.272648e+000
2.781105724688518e-003	2.000000e+000	3.442344e+000	2.188943e+000
2.789476260402803e-003	2.000000e+000	3.424841e+000	2.105237e+000
2.797846796117089e-003	2.000000e+000	3.403581e+000	2.021532e+000
2.800044061742089e-003	2.000000e+000	3.368862e+000	1.999559e+000
2.801590974000805e-003	2.000000e+000	3.170489e+000	1.984090e+000
2.802812452806782e-003	2.000000e+000	2.659891e+000	1.971876e+000
2.804212595677010e-003	2.000000e+000	1.864968e+000	1.957874e+000
2.804971646575021e-003	2.000000e+000	1.633070e+000	1.950284e+000
2.805519608176891e-003	2.000000e+000	1.604997e+000	1.944804e+000
2.807527146587051e-003	2.000000e+000	1.584696e+000	1.924729e+000
2.813034858745796e-003	2.000000e+000	1.570506e+000	1.869651e+000
2.818542570904540e-003	2.000000e+000	1.558592e+000	1.814574e+000
2.824050283063285e-003	2.000000e+000	1.548953e+000	1.759497e+000
2.829557995222030e-003	2.000000e+000	1.541590e+000	1.704420e+000
2.835065707380775e-003	2.000000e+000	1.536503e+000	1.649343e+000
2.840573419539519e-003	2.000000e+000	1.533691e+000	1.594266e+000
2.846081131698264e-003	2.000000e+000	1.533156e+000	1.539189e+000
2.857799881698263e-003	2.000000e+000	1.528995e+000	1.422001e+000
2.898815506698262e-003	2.000000e+000	1.523909e+000	1.011845e+000
2.904674881698262e-003	2.000000e+000	1.523665e+000	9.532512e-001
2.910534256698261e-003	2.000000e+000	1.523482e+000	8.946575e-001
2.916393631698261e-003	2.000000e+000	1.523353e+000	8.360637e-001
2.922253006698261e-003	2.000000e+000	1.523292e+000	7.774700e-001
2.928112381698261e-003	2.000000e+000	1.523361e+000	7.188762e-001
2.933971756698261e-003	2.000000e+000	1.523678e+000	6.602825e-001
2.939831131698260e-003	2.000000e+000	1.524332e+000	6.016887e-001
2.945690506698260e-003	2.000000e+000	1.525306e+000	5.430950e-001
2.951549881698260e-003	2.000000e+000	1.526532e+000	4.845012e-001
2.957409256698260e-003	2.000000e+000	1.527956e+000	4.259075e-001
2.963268631698260e-003	2.000000e+000	1.529556e+000	3.673137e-001
2.974987381698259e-003	2.000000e+000	1.533294e+000	2.501262e-001
2.992565506698258e-003	2.000000e+000	1.540546e+000	7.434496e-002
3.000000003000004e-003	2.000000e+000	1.544508e+000	0.000000e+000
