time	V(vin+)	V(vout)
0.000000000000000e+000	0.000000e+000	3.327207e-005
2.113782562824126e-008	1.328129e-004	4.668495e-005
4.227565125648252e-008	2.656258e-004	9.946354e-005
6.341347688472378e-008	3.984386e-004	1.916078e-004
8.455130251296503e-008	5.312515e-004	3.231178e-004
1.056891281412063e-007	6.640643e-004	4.939935e-004
1.268269537694476e-007	7.968771e-004	7.042349e-004
1.479647793976888e-007	9.296900e-004	9.538421e-004
2.061463515131627e-007	1.295255e-003	1.729590e-003
2.721263679806926e-007	1.709820e-003	2.769230e-003
3.564723306557482e-007	2.239780e-003	4.228713e-003
4.757119017253916e-007	2.988982e-003	6.399699e-003
1.745734442296375e-005	1.094679e-001	3.256841e-001
3.503546942296375e-005	2.183607e-001	6.522856e-001
5.261359442296375e-005	3.245926e-001	9.709386e-001
7.019171942296375e-005	4.268689e-001	1.277760e+000
8.776984442296377e-005	5.239434e-001	1.569012e+000
1.053479694229638e-004	6.146331e-001	1.841143e+000
1.229260944229638e-004	6.978329e-001	2.090839e+000
1.405042194229638e-004	7.725288e-001	2.315057e+000
1.580823444229638e-004	8.378106e-001	2.511063e+000
1.756604694229638e-004	8.928828e-001	2.676470e+000
1.932385944229639e-004	9.370743e-001	2.809262e+000
2.108167194229639e-004	9.698466e-001	2.907820e+000
2.283948444229639e-004	9.908002e-001	2.970945e+000
2.459729694229639e-004	9.996799e-001	2.997865e+000
2.635510944229639e-004	9.963774e-001	2.988254e+000
2.811292194229639e-004	9.809331e-001	2.942228e+000
2.987073444229639e-004	9.535350e-001	2.860348e+000
3.162854694229640e-004	9.145170e-001	2.743613e+000
3.338635944229640e-004	8.643547e-001	2.593443e+000
3.514417194229640e-004	8.036594e-001	2.411670e+000
3.690198444229640e-004	7.331706e-001	2.200509e+000
3.865979694229640e-004	6.537473e-001	1.962533e+000
4.041760944229640e-004	5.663574e-001	1.700641e+000
4.217542194229641e-004	4.720659e-001	1.418025e+000
4.393323444229641e-004	3.720217e-001	1.118130e+000
4.569104694229641e-004	2.674441e-001	8.046090e-001
4.744885944229641e-004	1.596074e-001	4.812835e-001
4.920667194229641e-004	4.982563e-002	1.520936e-001
5.096448444229641e-004	-6.056326e-002	-1.789495e-001
5.272229694229642e-004	-1.702141e-001	-5.078114e-001
5.448010944229642e-004	-2.777908e-001	-8.304847e-001
5.623792194229642e-004	-3.819822e-001	-1.143037e+000
5.799573444229642e-004	-4.815188e-001	-1.441660e+000
5.975354694229642e-004	-5.751876e-001	-1.722714e+000
6.151135944229642e-004	-6.618471e-001	-1.982775e+000
6.326917194229642e-004	-7.404413e-001	-2.218673e+000
6.502698444229643e-004	-8.100124e-001	-2.427533e+000
6.678479694229643e-004	-8.697127e-001	-2.606811e+000
6.854260944229643e-004	-9.188146e-001	-2.754322e+000
7.030042194229643e-004	-9.567198e-001	-2.868268e+000
7.205823444229643e-004	-9.829663e-001	-2.947260e+000
7.381604694229643e-004	-9.972343e-001	-2.990336e+000
7.557385944229644e-004	-9.993500e-001	-2.996972e+000
7.733167194229644e-004	-9.892876e-001	-2.967086e+000
7.908948444229644e-004	-9.671696e-001	-2.901042e+000
8.084729694229644e-004	-9.332656e-001	-2.799646e+000
8.260510944229644e-004	-8.879889e-001	-2.664133e+000
8.436292194229644e-004	-8.318910e-001	-2.496155e+000
8.612073444229644e-004	-7.656556e-001	-2.297757e+000
8.787854694229645e-004	-6.900899e-001	-2.071359e+000
8.963635944229645e-004	-6.061148e-001	-1.819719e+000
9.139417194229645e-004	-5.147535e-001	-1.545903e+000
9.315198444229645e-004	-4.171194e-001	-1.253249e+000
9.490979694229645e-004	-3.144022e-001	-9.453219e-001
9.666760944229645e-004	-2.078537e-001	-6.258750e-001
9.842542194229646e-004	-9.877235e-002	-2.988007e-001
1.001832344422965e-003	1.151271e-002	3.191517e-002
1.019410469422965e-003	1.216575e-001	3.622425e-001
1.036988594422965e-003	2.303197e-001	6.881559e-001
1.054566719422965e-003	3.361752e-001	1.005684e+000
1.072144844422965e-003	4.379341e-001	1.310957e+000
1.089722969422965e-003	5.343563e-001	1.600255e+000
1.107301094422965e-003	6.242668e-001	1.870053e+000
1.124879219422965e-003	7.065700e-001	2.117063e+000
1.142457344422965e-003	7.802628e-001	2.338275e+000
1.160035469422965e-003	8.444473e-001	2.530993e+000
1.177613594422965e-003	8.983414e-001	2.692868e+000
1.195191719422965e-003	9.412881e-001	2.821929e+000
1.212769844422965e-003	9.727643e-001	2.916602e+000
1.230347969422965e-003	9.923863e-001	2.975734e+000
1.247926094422965e-003	9.999151e-001	2.998603e+000
1.265504219422965e-003	9.952588e-001	2.984932e+000
1.283082344422965e-003	9.784743e-001	2.934886e+000
1.300660469422965e-003	9.497660e-001	2.849077e+000
1.318238594422965e-003	9.094837e-001	2.728548e+000
1.335816719422965e-003	8.581185e-001	2.574770e+000
1.353394844422965e-003	7.962962e-001	2.389615e+000
1.370972969422965e-003	7.247701e-001	2.175341e+000
1.388551094422965e-003	6.444120e-001	1.934559e+000
1.406129219422965e-003	5.562010e-001	1.670202e+000
1.423707344422965e-003	4.612122e-001	1.385492e+000
1.441285469422965e-003	3.606030e-001	1.083898e+000
1.458863594422965e-003	2.555994e-001	7.690969e-001
1.476441719422965e-003	1.474811e-001	4.449236e-001
1.494019844422965e-003	3.756559e-002	1.153287e-001
1.505738594422965e-003	-3.604884e-002	-1.054309e-001
1.523316719422965e-003	-1.459798e-001	-4.351255e-001
1.540894844422965e-003	-2.541318e-001	-7.595173e-001
1.558472969422965e-003	-3.591869e-001	-1.074653e+000
1.576051094422965e-003	-4.598650e-001	-1.376693e+000
1.593629219422965e-003	-5.549391e-001	-1.661955e+000
1.611207344422965e-003	-6.432507e-001	-1.926965e+000
1.628785469422965e-003	-7.237236e-001	-2.168491e+000
1.646363594422965e-003	-7.953771e-001	-2.383592e+000
1.663941719422965e-003	-8.573382e-001	-2.569646e+000
1.681519844422965e-003	-9.088517e-001	-2.724385e+000
1.699097969422965e-003	-9.492899e-001	-2.845924e+000
1.716676094422965e-003	-9.781599e-001	-2.932783e+000
1.734254219422965e-003	-9.951100e-001	-2.983902e+000
1.751832344422965e-003	-9.999337e-001	-2.998658e+000
1.769410469422965e-003	-9.925721e-001	-2.976872e+000
1.786988594422965e-003	-9.731150e-001	-2.918809e+000
1.804566719422965e-003	-9.417995e-001	-2.825177e+000
1.822144844422965e-003	-8.990071e-001	-2.697118e+000
1.839722969422965e-003	-8.452593e-001	-2.536190e+000
1.857301094422965e-003	-7.812112e-001	-2.344356e+000
1.874879219422965e-003	-7.076432e-001	-2.123953e+000
1.892457344422965e-003	-6.254518e-001	-1.877668e+000
1.910035469422965e-003	-5.356386e-001	-1.608501e+000
1.927613594422965e-003	-4.392981e-001	-1.319732e+000
1.945191719422965e-003	-3.376043e-001	-1.014880e+000
1.962769844422965e-003	-2.317964e-001	-6.976612e-001
1.980347969422965e-003	-1.231638e-001	-3.719399e-001
1.997926094422964e-003	-1.303036e-002	-4.168582e-002
2.015504219422963e-003	9.726188e-002	2.890767e-001
2.033082344422963e-003	2.063689e-001	6.163169e-001
2.050660469422962e-003	3.129611e-001	9.360471e-001
2.068238594422961e-003	4.157395e-001	1.244371e+000
2.085816719422961e-003	5.134517e-001	1.537531e+000
2.103394844422960e-003	6.049069e-001	1.811956e+000
2.120972969422960e-003	6.889907e-001	2.064300e+000
2.138551094422959e-003	7.646785e-001	2.291490e+000
2.156129219422958e-003	8.310478e-001	2.490755e+000
2.173707344422958e-003	8.872899e-001	2.659668e+000
2.191285469422957e-003	9.327194e-001	2.796172e+000
2.208863594422956e-003	9.667827e-001	2.898601e+000
2.226441719422956e-003	9.890649e-001	2.965708e+000
2.244019844422955e-003	9.992942e-001	2.996676e+000
2.261597969422954e-003	9.973460e-001	2.991126e+000
2.279176094422954e-003	9.832441e-001	2.949127e+000
2.296754219422953e-003	9.571604e-001	2.871189e+000
2.314332344422953e-003	9.194126e-001	2.758264e+000
2.331910469422952e-003	8.704608e-001	2.611726e+000
2.349488594422951e-003	8.109015e-001	2.433362e+000
2.367066719422951e-003	7.414606e-001	2.225346e+000
2.384644844422950e-003	6.629841e-001	1.990211e+000
2.402222969422949e-003	5.764285e-001	1.730824e+000
2.419801094422949e-003	4.828485e-001	1.450345e+000
2.437379219422948e-003	3.833844e-001	1.152193e+000
2.454957344422947e-003	2.792485e-001	8.399999e-001
2.472535469422947e-003	1.717096e-001	5.175711e-001
2.490113594422946e-003	6.207818e-002	1.888355e-001
2.494298862280089e-003	3.576822e-002	1.099388e-001
2.498484130137232e-003	9.478925e-003	3.110236e-002
2.502669397994374e-003	-1.678969e-002	-4.767395e-002
2.506854665851517e-003	-4.303764e-002	-1.263901e-001
2.511039933708660e-003	-6.926492e-002	-2.050461e-001
2.515225201565803e-003	-9.547153e-002	-2.836419e-001
2.519410469422945e-003	-1.216575e-001	-3.621776e-001
2.536988594422945e-003	-2.303197e-001	-6.880924e-001
2.554566719422944e-003	-3.361752e-001	-1.005622e+000
2.572144844422943e-003	-4.379341e-001	-1.310896e+000
2.589722969422943e-003	-5.343563e-001	-1.600195e+000
2.607301094422942e-003	-6.242668e-001	-1.869993e+000
2.624879219422941e-003	-7.065700e-001	-2.117003e+000
2.642457344422941e-003	-7.802628e-001	-2.338215e+000
2.660035469422940e-003	-8.444473e-001	-2.530933e+000
2.677613594422939e-003	-8.983414e-001	-2.692808e+000
2.695191719422939e-003	-9.412881e-001	-2.821867e+000
2.712769844422938e-003	-9.727643e-001	-2.916539e+000
2.730347969422938e-003	-9.923863e-001	-2.975669e+000
2.747926094422937e-003	-9.999151e-001	-2.998537e+000
2.765504219422936e-003	-9.952588e-001	-2.984864e+000
2.783082344422936e-003	-9.784743e-001	-2.934818e+000
2.800660469422935e-003	-9.497660e-001	-2.849007e+000
2.818238594422934e-003	-9.094837e-001	-2.728477e+000
2.835816719422934e-003	-8.581185e-001	-2.574698e+000
2.853394844422933e-003	-7.962962e-001	-2.389543e+000
2.870972969422932e-003	-7.247701e-001	-2.175268e+000
2.888551094422932e-003	-6.444120e-001	-1.934486e+000
2.906129219422931e-003	-5.562010e-001	-1.670129e+000
2.923707344422931e-003	-4.612122e-001	-1.385420e+000
2.941285469422930e-003	-3.606030e-001	-1.083827e+000
2.958863594422929e-003	-2.555994e-001	-7.690271e-001
2.976441719422929e-003	-1.474811e-001	-4.448551e-001
2.994019844422928e-003	-3.756559e-002	-1.152617e-001
3.005738594422928e-003	3.604884e-002	1.054970e-001
3.023316719422927e-003	1.459798e-001	4.351902e-001
3.040894844422926e-003	2.541318e-001	7.595806e-001
3.058472969422926e-003	3.591869e-001	1.074715e+000
3.076051094422925e-003	4.598650e-001	1.376754e+000
3.093629219422924e-003	5.549391e-001	1.662015e+000
3.111207344422924e-003	6.432507e-001	1.927024e+000
3.128785469422923e-003	7.237236e-001	2.168551e+000
3.146363594422923e-003	7.953771e-001	2.383652e+000
3.163941719422922e-003	8.573382e-001	2.569706e+000
3.181519844422921e-003	9.088517e-001	2.724446e+000
3.199097969422921e-003	9.492899e-001	2.845986e+000
3.216676094422920e-003	9.781599e-001	2.932846e+000
3.234254219422919e-003	9.951100e-001	2.983966e+000
3.251832344422919e-003	9.999337e-001	2.998724e+000
3.269410469422918e-003	9.925721e-001	2.976939e+000
3.286988594422917e-003	9.731150e-001	2.918878e+000
3.304566719422917e-003	9.417995e-001	2.825248e+000
3.322144844422916e-003	8.990071e-001	2.697189e+000
3.339722969422916e-003	8.452593e-001	2.536262e+000
3.357301094422915e-003	7.812112e-001	2.344429e+000
3.374879219422914e-003	7.076432e-001	2.124026e+000
3.392457344422914e-003	6.254518e-001	1.877741e+000
3.410035469422913e-003	5.356386e-001	1.608573e+000
3.427613594422912e-003	4.392981e-001	1.319803e+000
3.445191719422912e-003	3.376043e-001	1.014951e+000
3.462769844422911e-003	2.317964e-001	6.977307e-001
3.480347969422910e-003	1.231638e-001	3.720081e-001
3.497926094422910e-003	1.303036e-002	4.175255e-002
3.515504219422909e-003	-9.726188e-002	-2.890114e-001
3.533082344422909e-003	-2.063689e-001	-6.162530e-001
3.550660469422908e-003	-3.129611e-001	-9.359844e-001
3.568238594422907e-003	-4.157395e-001	-1.244309e+000
3.585816719422907e-003	-5.134517e-001	-1.537471e+000
3.603394844422906e-003	-6.049069e-001	-1.811896e+000
3.620972969422905e-003	-6.889907e-001	-2.064240e+000
3.638551094422905e-003	-7.646785e-001	-2.291430e+000
3.656129219422904e-003	-8.310478e-001	-2.490695e+000
3.673707344422903e-003	-8.872899e-001	-2.659608e+000
3.691285469422903e-003	-9.327194e-001	-2.796110e+000
3.708863594422902e-003	-9.667827e-001	-2.898538e+000
3.726441719422902e-003	-9.890649e-001	-2.965644e+000
3.744019844422901e-003	-9.992942e-001	-2.996610e+000
3.761597969422900e-003	-9.973460e-001	-2.991059e+000
3.779176094422900e-003	-9.832441e-001	-2.949058e+000
3.796754219422899e-003	-9.571604e-001	-2.871119e+000
3.814332344422898e-003	-9.194126e-001	-2.758193e+000
3.831910469422898e-003	-8.704608e-001	-2.611655e+000
3.849488594422897e-003	-8.109015e-001	-2.433290e+000
3.867066719422896e-003	-7.414606e-001	-2.225273e+000
3.884644844422896e-003	-6.629841e-001	-1.990138e+000
3.902222969422895e-003	-5.764285e-001	-1.730751e+000
3.919801094422895e-003	-4.828485e-001	-1.450273e+000
3.937379219422896e-003	-3.833844e-001	-1.152122e+000
3.954957344422897e-003	-2.792485e-001	-8.399298e-001
3.972535469422897e-003	-1.717096e-001	-5.175023e-001
3.990113594422898e-003	-6.207818e-002	-1.887681e-001
3.994298862280041e-003	-3.576822e-002	-1.098718e-001
3.998484130137184e-003	-9.478925e-003	-3.103568e-002
4.002669397994327e-003	1.678969e-002	4.774029e-002
4.006854665851470e-003	4.303764e-002	1.264561e-001
4.011039933708613e-003	6.926492e-002	2.051117e-001
4.015225201565756e-003	9.547153e-002	2.837072e-001
4.019410469422899e-003	1.216575e-001	3.622425e-001
4.036988594422900e-003	2.303197e-001	6.881559e-001
4.054566719422901e-003	3.361752e-001	1.005684e+000
4.072144844422901e-003	4.379341e-001	1.310957e+000
4.089722969422902e-003	5.343563e-001	1.600255e+000
4.107301094422903e-003	6.242668e-001	1.870053e+000
4.124879219422903e-003	7.065700e-001	2.117063e+000
4.142457344422904e-003	7.802628e-001	2.338275e+000
4.160035469422905e-003	8.444473e-001	2.530993e+000
4.177613594422905e-003	8.983414e-001	2.692868e+000
4.195191719422906e-003	9.412881e-001	2.821929e+000
4.212769844422907e-003	9.727643e-001	2.916602e+000
4.230347969422907e-003	9.923863e-001	2.975734e+000
4.247926094422908e-003	9.999151e-001	2.998603e+000
4.265504219422909e-003	9.952588e-001	2.984932e+000
4.283082344422909e-003	9.784743e-001	2.934886e+000
4.300660469422910e-003	9.497660e-001	2.849077e+000
4.318238594422911e-003	9.094837e-001	2.728548e+000
4.335816719422911e-003	8.581185e-001	2.574770e+000
4.353394844422912e-003	7.962962e-001	2.389615e+000
4.370972969422913e-003	7.247701e-001	2.175341e+000
4.388551094422913e-003	6.444120e-001	1.934559e+000
4.406129219422914e-003	5.562010e-001	1.670202e+000
4.423707344422915e-003	4.612122e-001	1.385492e+000
4.441285469422915e-003	3.606030e-001	1.083898e+000
4.458863594422916e-003	2.555994e-001	7.690969e-001
4.476441719422917e-003	1.474811e-001	4.449236e-001
4.494019844422917e-003	3.756559e-002	1.153287e-001
4.505738594422918e-003	-3.604884e-002	-1.054309e-001
4.523316719422918e-003	-1.459798e-001	-4.351255e-001
4.540894844422919e-003	-2.541318e-001	-7.595173e-001
4.558472969422920e-003	-3.591869e-001	-1.074653e+000
4.576051094422920e-003	-4.598650e-001	-1.376693e+000
4.593629219422921e-003	-5.549391e-001	-1.661955e+000
4.611207344422922e-003	-6.432507e-001	-1.926965e+000
4.628785469422922e-003	-7.237236e-001	-2.168491e+000
4.646363594422923e-003	-7.953771e-001	-2.383592e+000
4.663941719422924e-003	-8.573382e-001	-2.569646e+000
4.681519844422924e-003	-9.088517e-001	-2.724385e+000
4.699097969422925e-003	-9.492899e-001	-2.845924e+000
4.716676094422926e-003	-9.781599e-001	-2.932783e+000
4.734254219422926e-003	-9.951100e-001	-2.983902e+000
4.751832344422927e-003	-9.999337e-001	-2.998658e+000
4.769410469422928e-003	-9.925721e-001	-2.976872e+000
4.786988594422928e-003	-9.731150e-001	-2.918809e+000
4.804566719422929e-003	-9.417995e-001	-2.825177e+000
4.822144844422930e-003	-8.990071e-001	-2.697118e+000
4.839722969422930e-003	-8.452593e-001	-2.536190e+000
4.857301094422931e-003	-7.812112e-001	-2.344356e+000
4.874879219422932e-003	-7.076432e-001	-2.123953e+000
4.892457344422932e-003	-6.254518e-001	-1.877668e+000
4.910035469422933e-003	-5.356386e-001	-1.608501e+000
4.927613594422934e-003	-4.392981e-001	-1.319732e+000
4.945191719422934e-003	-3.376043e-001	-1.014880e+000
4.962769844422935e-003	-2.317964e-001	-6.976612e-001
4.980347969422936e-003	-1.231638e-001	-3.719399e-001
4.997926094422936e-003	-1.303036e-002	-4.168582e-002
5.015504219422937e-003	9.726188e-002	2.890767e-001
5.033082344422938e-003	2.063689e-001	6.163169e-001
5.050660469422938e-003	3.129611e-001	9.360471e-001
5.068238594422939e-003	4.157395e-001	1.244371e+000
5.085816719422940e-003	5.134517e-001	1.537531e+000
5.103394844422940e-003	6.049069e-001	1.811956e+000
5.120972969422941e-003	6.889907e-001	2.064300e+000
5.138551094422942e-003	7.646785e-001	2.291490e+000
5.156129219422942e-003	8.310478e-001	2.490755e+000
5.173707344422943e-003	8.872899e-001	2.659668e+000
5.191285469422944e-003	9.327194e-001	2.796172e+000
5.208863594422944e-003	9.667827e-001	2.898601e+000
5.226441719422945e-003	9.890649e-001	2.965708e+000
5.244019844422946e-003	9.992942e-001	2.996676e+000
5.261597969422946e-003	9.973460e-001	2.991126e+000
5.279176094422947e-003	9.832441e-001	2.949127e+000
5.296754219422948e-003	9.571604e-001	2.871189e+000
5.314332344422948e-003	9.194126e-001	2.758264e+000
5.331910469422949e-003	8.704608e-001	2.611726e+000
5.349488594422950e-003	8.109015e-001	2.433362e+000
5.367066719422950e-003	7.414606e-001	2.225346e+000
5.384644844422951e-003	6.629841e-001	1.990211e+000
5.402222969422952e-003	5.764285e-001	1.730824e+000
5.419801094422952e-003	4.828485e-001	1.450345e+000
5.437379219422953e-003	3.833844e-001	1.152193e+000
5.454957344422954e-003	2.792485e-001	8.399999e-001
5.472535469422954e-003	1.717096e-001	5.175711e-001
5.490113594422955e-003	6.207818e-002	1.888355e-001
5.494298862280098e-003	3.576822e-002	1.099388e-001
5.498484130137241e-003	9.478925e-003	3.110236e-002
5.502669397994384e-003	-1.678969e-002	-4.767395e-002
5.506854665851527e-003	-4.303764e-002	-1.263901e-001
5.511039933708670e-003	-6.926492e-002	-2.050461e-001
5.515225201565813e-003	-9.547153e-002	-2.836419e-001
5.519410469422956e-003	-1.216575e-001	-3.621776e-001
5.536988594422957e-003	-2.303197e-001	-6.880924e-001
5.554566719422957e-003	-3.361752e-001	-1.005622e+000
5.572144844422958e-003	-4.379341e-001	-1.310896e+000
5.589722969422959e-003	-5.343563e-001	-1.600195e+000
5.607301094422959e-003	-6.242668e-001	-1.869993e+000
5.624879219422960e-003	-7.065700e-001	-2.117003e+000
5.642457344422961e-003	-7.802628e-001	-2.338215e+000
5.660035469422961e-003	-8.444473e-001	-2.530933e+000
5.677613594422962e-003	-8.983414e-001	-2.692808e+000
5.695191719422963e-003	-9.412881e-001	-2.821867e+000
5.712769844422963e-003	-9.727643e-001	-2.916539e+000
5.730347969422964e-003	-9.923863e-001	-2.975669e+000
5.747926094422965e-003	-9.999151e-001	-2.998537e+000
5.765504219422965e-003	-9.952588e-001	-2.984864e+000
5.783082344422966e-003	-9.784743e-001	-2.934818e+000
5.800660469422967e-003	-9.497660e-001	-2.849007e+000
5.818238594422967e-003	-9.094837e-001	-2.728477e+000
5.835816719422968e-003	-8.581185e-001	-2.574698e+000
5.853394844422969e-003	-7.962962e-001	-2.389543e+000
5.865113594422969e-003	-7.496389e-001	-2.249774e+000
5.882691719422970e-003	-6.721210e-001	-2.017517e+000
5.900269844422970e-003	-5.864127e-001	-1.760674e+000
5.917847969422971e-003	-4.935583e-001	-1.482375e+000
5.935426094422972e-003	-3.946894e-001	-1.186011e+000
5.953004219422972e-003	-2.910108e-001	-8.751941e-001
5.970582344422973e-003	-1.837859e-001	-5.537117e-001
5.988160469422974e-003	-7.432137e-002	-2.254814e-001
5.999879219422974e-003	-7.588867e-004	-4.886979e-003
6.000000000000000e-003	-1.469576e-015	-2.610605e-003
