time	V(in,+)	V(out)	V(in,-)
0.000000000000000e+000	0.000000e+000	1.345467e+001	6.000000e+000
1.604480837196668e-006	4.813442e-002	1.345631e+001	6.000000e+000
3.208961674393336e-006	9.626885e-002	1.345800e+001	6.000000e+000
4.813442511590004e-006	1.444033e-001	1.345976e+001	6.000000e+000
6.417923348786672e-006	1.925377e-001	1.346158e+001	6.000000e+000
8.022404185983340e-006	2.406721e-001	1.346347e+001	6.000000e+000
9.626885023180009e-006	2.888065e-001	1.346541e+001	6.000000e+000
1.123136586037667e-005	3.369410e-001	1.346742e+001	6.000000e+000
1.709074086037667e-005	5.127223e-001	1.347243e+001	6.000000e+000
2.295011586037667e-005	6.885035e-001	1.347574e+001	6.000000e+000
2.880949086037667e-005	8.642848e-001	1.347719e+001	6.000000e+000
3.466886586037667e-005	1.040066e+000	1.347746e+001	6.000000e+000
4.052824086037667e-005	1.215847e+000	1.347745e+001	6.000000e+000
1.752938658603768e-004	5.258816e+000	1.347581e+001	6.000000e+000
1.925554279496741e-004	5.776663e+000	1.345165e+001	6.000000e+000
1.984148029496741e-004	5.952444e+000	1.341058e+001	6.000000e+000
2.013368821082720e-004	6.040106e+000	1.246092e+001	6.000000e+000
2.034278245857726e-004	6.102835e+000	9.736270e+000	6.000000e+000
2.048340350933474e-004	6.145021e+000	6.443592e+000	6.000000e+000
2.066030815139656e-004	6.198092e+000	1.632897e+000	6.000000e+000
2.066281286038397e-004	6.198844e+000	1.597829e+000	6.000000e+000
2.069498791322772e-004	6.208497e+000	1.581419e+000	6.000000e+000
2.078862808815123e-004	6.236588e+000	1.562603e+000	6.000000e+000
2.105616569195390e-004	6.316850e+000	1.545609e+000	6.000000e+000
2.161149846461015e-004	6.483450e+000	1.536818e+000	6.000000e+000
2.216683123726640e-004	6.650049e+000	1.529887e+000	6.000000e+000
2.272216400992264e-004	6.816649e+000	1.524817e+000	6.000000e+000
2.327749678257889e-004	6.983249e+000	1.521608e+000	6.000000e+000
2.383282955523514e-004	7.149849e+000	1.520260e+000	6.000000e+000
2.438816232789139e-004	7.316449e+000	1.520772e+000	6.000000e+000
2.494349510054763e-004	7.483048e+000	1.523144e+000	6.000000e+000
5.003355452386593e-004	1.498993e+001	1.523146e+000	6.000000e+000
5.402320662894890e-004	1.379304e+001	1.522639e+000	6.000000e+000
5.801285873403187e-004	1.259614e+001	1.522449e+000	6.000000e+000
6.200251083911483e-004	1.139925e+001	1.522577e+000	6.000000e+000
6.599216294419781e-004	1.020235e+001	1.523022e+000	6.000000e+000
6.998181504928077e-004	9.005455e+000	1.523784e+000	6.000000e+000
7.397146715436374e-004	7.808560e+000	1.524863e+000	6.000000e+000
7.796111925944670e-004	6.611664e+000	1.526259e+000	6.000000e+000
7.908657439296551e-004	6.274028e+000	1.543009e+000	6.000000e+000
7.967251189296551e-004	6.098247e+000	1.569291e+000	6.000000e+000
8.006476647567182e-004	5.980570e+000	2.196034e+000	6.000000e+000
8.026403500186546e-004	5.920790e+000	3.934593e+000	6.000000e+000
8.040667042268121e-004	5.877999e+000	6.843950e+000	6.000000e+000
8.055748344555941e-004	5.832755e+000	1.082304e+001	6.000000e+000
8.066959211502019e-004	5.799122e+000	1.338555e+001	6.000000e+000
8.090565412476321e-004	5.728304e+000	1.342352e+001	6.000000e+000
8.114171613450624e-004	5.657485e+000	1.345302e+001	6.000000e+000
8.137777814424925e-004	5.586667e+000	1.347405e+001	6.000000e+000
8.161384015399227e-004	5.515848e+000	1.348662e+001	6.000000e+000
8.184990216373529e-004	5.445030e+000	1.349071e+001	6.000000e+000
8.208596417347832e-004	5.374211e+000	1.348634e+001	6.000000e+000
8.232202618322134e-004	5.303392e+000	1.347349e+001	6.000000e+000
8.424724939750706e-004	4.725825e+000	1.347511e+001	6.000000e+000
8.617247261179277e-004	4.148258e+000	1.347638e+001	6.000000e+000
8.809769582607849e-004	3.570691e+000	1.347729e+001	6.000000e+000
9.002291904036421e-004	2.993124e+000	1.347786e+001	6.000000e+000
9.194814225464993e-004	2.415557e+000	1.347807e+001	6.000000e+000
9.387336546893564e-004	1.837990e+000	1.347793e+001	6.000000e+000
9.579858868322135e-004	1.260423e+000	1.347744e+001	6.000000e+000
9.638452618322135e-004	1.084642e+000	1.347746e+001	6.000000e+000
9.697046368322135e-004	9.088609e-001	1.347743e+001	6.000000e+000
9.755640118322135e-004	7.330797e-001	1.347697e+001	6.000000e+000
9.814233868322135e-004	5.572984e-001	1.347517e+001	6.000000e+000
9.872827618322136e-004	3.815172e-001	1.347145e+001	6.000000e+000
9.931421368322136e-004	2.057359e-001	1.346627e+001	6.000000e+000
9.961376043355729e-004	1.158719e-001	1.346268e+001	6.000000e+000
1.000000001000000e-003	0.000000e+000	1.345730e+001	6.000000e+000
1.000501759278076e-003	1.505275e-002	1.345679e+001	6.000000e+000
1.004454908003437e-003	1.336472e-001	1.345974e+001	6.000000e+000
1.006781206531481e-003	2.034362e-001	1.346258e+001	6.000000e+000
1.010596783407898e-003	3.179035e-001	1.346681e+001	6.000000e+000
1.015981499604058e-003	4.794450e-001	1.347163e+001	6.000000e+000
1.021840874604058e-003	6.552262e-001	1.347526e+001	6.000000e+000
1.027700249604058e-003	8.310075e-001	1.347702e+001	6.000000e+000
1.033559624604058e-003	1.006789e+000	1.347745e+001	6.000000e+000
1.039418999604058e-003	1.182570e+000	1.347746e+001	6.000000e+000
1.179390363953644e-003	5.381711e+000	1.347396e+001	6.000000e+000
1.190652409780209e-003	5.719572e+000	1.345760e+001	6.000000e+000
1.196511784780209e-003	5.895353e+000	1.284099e+001	6.000000e+000
1.202371159780209e-003	6.071135e+000	9.447829e+000	6.000000e+000
1.204729168135581e-003	6.141875e+000	6.176670e+000	6.000000e+000
1.207554193397854e-003	6.226626e+000	1.600729e+000	6.000000e+000
1.207602631058381e-003	6.228079e+000	1.566074e+000	6.000000e+000
1.209210216463546e-003	6.276306e+000	1.555256e+000	6.000000e+000
1.210817801868710e-003	6.324534e+000	1.546340e+000	6.000000e+000
1.212425387273875e-003	6.372762e+000	1.539325e+000	6.000000e+000
1.214032972679040e-003	6.420989e+000	1.534212e+000	6.000000e+000
1.215640558084204e-003	6.469217e+000	1.531000e+000	6.000000e+000
1.217248143489369e-003	6.517444e+000	1.529689e+000	6.000000e+000
1.218855728894534e-003	6.565672e+000	1.530279e+000	6.000000e+000
1.236433853894534e-003	7.093016e+000	1.523061e+000	6.000000e+000
1.500335546238661e-003	1.498993e+001	1.523146e+000	6.000000e+000
1.540232068164435e-003	1.379304e+001	1.522639e+000	6.000000e+000
1.580128590090209e-003	1.259614e+001	1.522449e+000	6.000000e+000
1.620025112015982e-003	1.139925e+001	1.522577e+000	6.000000e+000
1.659921633941756e-003	1.020235e+001	1.523022e+000	6.000000e+000
1.699818155867530e-003	9.005455e+000	1.523784e+000	6.000000e+000
1.739714677793304e-003	7.808560e+000	1.524863e+000	6.000000e+000
1.779611199719077e-003	6.611664e+000	1.526259e+000	6.000000e+000
1.790865755733787e-003	6.274027e+000	1.543009e+000	6.000000e+000
1.796725130733787e-003	6.098246e+000	1.569292e+000	6.000000e+000
1.800647658501722e-003	5.980570e+000	2.196029e+000	6.000000e+000
1.802640342900480e-003	5.920790e+000	3.934579e+000	6.000000e+000
1.804066694556966e-003	5.877999e+000	6.843921e+000	6.000000e+000
1.805574822801197e-003	5.832756e+000	1.082300e+001	6.000000e+000
1.806695914980740e-003	5.799123e+000	1.338555e+001	6.000000e+000
1.809056535345004e-003	5.728304e+000	1.342352e+001	6.000000e+000
1.811417155709269e-003	5.657486e+000	1.345302e+001	6.000000e+000
1.813777776073533e-003	5.586667e+000	1.347405e+001	6.000000e+000
1.816138396437798e-003	5.515848e+000	1.348662e+001	6.000000e+000
1.818499016802063e-003	5.445030e+000	1.349071e+001	6.000000e+000
1.820859637166327e-003	5.374211e+000	1.348634e+001	6.000000e+000
1.823220257530592e-003	5.303392e+000	1.347349e+001	6.000000e+000
1.842472489673449e-003	4.725825e+000	1.347511e+001	6.000000e+000
1.861724721816306e-003	4.148258e+000	1.347638e+001	6.000000e+000
1.880976953959163e-003	3.570692e+000	1.347729e+001	6.000000e+000
1.900229186102020e-003	2.993125e+000	1.347786e+001	6.000000e+000
1.919481418244878e-003	2.415558e+000	1.347807e+001	6.000000e+000
1.938733650387735e-003	1.837991e+000	1.347793e+001	6.000000e+000
1.957985882530592e-003	1.260424e+000	1.347744e+001	6.000000e+000
1.963845257530592e-003	1.084642e+000	1.347746e+001	6.000000e+000
1.969704632530591e-003	9.088611e-001	1.347743e+001	6.000000e+000
1.975564007530591e-003	7.330799e-001	1.347697e+001	6.000000e+000
1.981423382530591e-003	5.572986e-001	1.347517e+001	6.000000e+000
1.987282757530591e-003	3.815173e-001	1.347145e+001	6.000000e+000
1.993142132530591e-003	2.057361e-001	1.346627e+001	6.000000e+000
1.996137615938826e-003	1.158716e-001	1.346268e+001	6.000000e+000
2.000000002000002e-003	5.329071e-015	1.345730e+001	6.000000e+000
2.000501760284091e-003	1.505275e-002	1.345679e+001	6.000000e+000
2.004454908697306e-003	1.336472e-001	1.345974e+001	6.000000e+000
2.006781207251170e-003	2.034362e-001	1.346258e+001	6.000000e+000
2.010596783938250e-003	3.179035e-001	1.346681e+001	6.000000e+000
2.015981499936291e-003	4.794450e-001	1.347163e+001	6.000000e+000
2.021840874936291e-003	6.552262e-001	1.347526e+001	6.000000e+000
2.027700249936291e-003	8.310074e-001	1.347702e+001	6.000000e+000
2.033559624936291e-003	1.006789e+000	1.347745e+001	6.000000e+000
2.039418999936290e-003	1.182570e+000	1.347746e+001	6.000000e+000
2.179390364194434e-003	5.381711e+000	1.347396e+001	6.000000e+000
2.190652409973558e-003	5.719572e+000	1.345760e+001	6.000000e+000
2.196511784973558e-003	5.895353e+000	1.284099e+001	6.000000e+000
2.202371159973558e-003	6.071135e+000	9.447832e+000	6.000000e+000
2.204729168104462e-003	6.141875e+000	6.176672e+000	6.000000e+000
2.207554193984674e-003	6.226626e+000	1.600729e+000	6.000000e+000
2.207602631745830e-003	6.228079e+000	1.566074e+000	6.000000e+000
2.209210218210333e-003	6.276306e+000	1.555256e+000	6.000000e+000
2.210817804674836e-003	6.324534e+000	1.546340e+000	6.000000e+000
2.212425391139339e-003	6.372762e+000	1.539325e+000	6.000000e+000
2.214032977603842e-003	6.420989e+000	1.534212e+000	6.000000e+000
2.215640564068345e-003	6.469217e+000	1.531000e+000	6.000000e+000
2.217248150532848e-003	6.517444e+000	1.529689e+000	6.000000e+000
2.218855736997351e-003	6.565672e+000	1.530279e+000	6.000000e+000
2.236433861997350e-003	7.093016e+000	1.523061e+000	6.000000e+000
2.500335547238663e-003	1.498993e+001	1.523146e+000	6.000000e+000
2.540232069164433e-003	1.379304e+001	1.522639e+000	6.000000e+000
2.580128591090203e-003	1.259614e+001	1.522449e+000	6.000000e+000
2.620025113015972e-003	1.139925e+001	1.522577e+000	6.000000e+000
2.659921634941742e-003	1.020235e+001	1.523022e+000	6.000000e+000
2.699818156867511e-003	9.005455e+000	1.523784e+000	6.000000e+000
2.739714678793281e-003	7.808560e+000	1.524863e+000	6.000000e+000
2.779611200719051e-003	6.611664e+000	1.526259e+000	6.000000e+000
2.790865756733746e-003	6.274027e+000	1.543009e+000	6.000000e+000
2.796725131733746e-003	6.098246e+000	1.569292e+000	6.000000e+000
2.800647659501740e-003	5.980570e+000	2.196029e+000	6.000000e+000
2.802640343900508e-003	5.920790e+000	3.934579e+000	6.000000e+000
2.804066695557005e-003	5.877999e+000	6.843921e+000	6.000000e+000
2.805574823801246e-003	5.832756e+000	1.082300e+001	6.000000e+000
2.806695915980771e-003	5.799123e+000	1.338555e+001	6.000000e+000
2.809056536345036e-003	5.728304e+000	1.342352e+001	6.000000e+000
2.811417156709301e-003	5.657486e+000	1.345302e+001	6.000000e+000
2.813777777073566e-003	5.586667e+000	1.347405e+001	6.000000e+000
2.816138397437830e-003	5.515848e+000	1.348662e+001	6.000000e+000
2.818499017802095e-003	5.445030e+000	1.349071e+001	6.000000e+000
2.820859638166360e-003	5.374211e+000	1.348634e+001	6.000000e+000
2.823220258530625e-003	5.303392e+000	1.347349e+001	6.000000e+000
2.842472490673481e-003	4.725825e+000	1.347511e+001	6.000000e+000
2.861724722816338e-003	4.148258e+000	1.347638e+001	6.000000e+000
2.880976954959194e-003	3.570692e+000	1.347729e+001	6.000000e+000
2.900229187102051e-003	2.993125e+000	1.347786e+001	6.000000e+000
2.919481419244907e-003	2.415558e+000	1.347807e+001	6.000000e+000
2.938733651387763e-003	1.837991e+000	1.347793e+001	6.000000e+000
2.957985883530620e-003	1.260424e+000	1.347744e+001	6.000000e+000
2.963845258530620e-003	1.084642e+000	1.347746e+001	6.000000e+000
2.969704633530620e-003	9.088611e-001	1.347743e+001	6.000000e+000
2.975564008530619e-003	7.330799e-001	1.347697e+001	6.000000e+000
2.981423383530619e-003	5.572986e-001	1.347517e+001	6.000000e+000
2.987282758530619e-003	3.815173e-001	1.347145e+001	6.000000e+000
2.993142133530619e-003	2.057361e-001	1.346627e+001	6.000000e+000
2.996137616938775e-003	1.158716e-001	1.346268e+001	6.000000e+000
3.000000003000004e-003	0.000000e+000	1.345730e+001	6.000000e+000
3.000501761284092e-003	1.505275e-002	1.345679e+001	6.000000e+000
3.004454909697360e-003	1.336472e-001	1.345974e+001	6.000000e+000
3.006781208251165e-003	2.034362e-001	1.346258e+001	6.000000e+000
3.010596784938260e-003	3.179035e-001	1.346681e+001	6.000000e+000
3.015981500936465e-003	4.794450e-001	1.347163e+001	6.000000e+000
3.021840875936465e-003	6.552262e-001	1.347526e+001	6.000000e+000
3.027700250936465e-003	8.310074e-001	1.347702e+001	6.000000e+000
3.033559625936465e-003	1.006789e+000	1.347745e+001	6.000000e+000
3.039419000936464e-003	1.182570e+000	1.347746e+001	6.000000e+000
3.179390365194631e-003	5.381711e+000	1.347396e+001	6.000000e+000
3.190652410973768e-003	5.719572e+000	1.345760e+001	6.000000e+000
3.196511785973767e-003	5.895353e+000	1.284099e+001	6.000000e+000
3.202371160973767e-003	6.071135e+000	9.447832e+000	6.000000e+000
3.204729169104735e-003	6.141875e+000	6.176672e+000	6.000000e+000
3.207554194984786e-003	6.226626e+000	1.600729e+000	6.000000e+000
3.207602632745916e-003	6.228079e+000	1.566074e+000	6.000000e+000
3.209210219210138e-003	6.276306e+000	1.555256e+000	6.000000e+000
3.210817805674361e-003	6.324534e+000	1.546340e+000	6.000000e+000
3.212425392138584e-003	6.372762e+000	1.539325e+000	6.000000e+000
3.214032978602808e-003	6.420989e+000	1.534212e+000	6.000000e+000
3.215640565067031e-003	6.469217e+000	1.531000e+000	6.000000e+000
3.217248151531254e-003	6.517444e+000	1.529689e+000	6.000000e+000
3.218855737995476e-003	6.565672e+000	1.530279e+000	6.000000e+000
3.236433862995476e-003	7.093016e+000	1.523061e+000	6.000000e+000
3.500335548093146e-003	1.498993e+001	1.523146e+000	6.000000e+000
3.540232069262425e-003	1.379304e+001	1.522639e+000	6.000000e+000
3.580128590431705e-003	1.259614e+001	1.522449e+000	6.000000e+000
3.620025111600984e-003	1.139925e+001	1.522577e+000	6.000000e+000
3.659921632770264e-003	1.020235e+001	1.523022e+000	6.000000e+000
3.699818153939544e-003	9.005455e+000	1.523784e+000	6.000000e+000
3.739714675108823e-003	7.808560e+000	1.524863e+000	6.000000e+000
3.779611196278103e-003	6.611664e+000	1.526259e+000	6.000000e+000
3.790865751852976e-003	6.274027e+000	1.543009e+000	6.000000e+000
3.796725126852976e-003	6.098246e+000	1.569291e+000	6.000000e+000
3.800647664153051e-003	5.980570e+000	2.196032e+000	6.000000e+000
3.802640349179765e-003	5.920790e+000	3.934587e+000	6.000000e+000
3.804066702221717e-003	5.877999e+000	6.843936e+000	6.000000e+000
3.805574831552809e-003	5.832755e+000	1.082302e+001	6.000000e+000
3.806695920837511e-003	5.799122e+000	1.338555e+001	6.000000e+000
3.809056541071136e-003	5.728304e+000	1.342352e+001	6.000000e+000
3.811417161304761e-003	5.657485e+000	1.345302e+001	6.000000e+000
3.813777781538385e-003	5.586667e+000	1.347405e+001	6.000000e+000
3.816138401772009e-003	5.515848e+000	1.348662e+001	6.000000e+000
3.818499022005633e-003	5.445030e+000	1.349071e+001	6.000000e+000
3.820859642239258e-003	5.374211e+000	1.348634e+001	6.000000e+000
3.823220262472882e-003	5.303392e+000	1.347349e+001	6.000000e+000
3.842472494615739e-003	4.725825e+000	1.347511e+001	6.000000e+000
3.861724726758596e-003	4.148258e+000	1.347638e+001	6.000000e+000
3.880976958901453e-003	3.570691e+000	1.347729e+001	6.000000e+000
3.900229191044310e-003	2.993124e+000	1.347786e+001	6.000000e+000
3.919481423187167e-003	2.415557e+000	1.347807e+001	6.000000e+000
3.938733655330024e-003	1.837990e+000	1.347793e+001	6.000000e+000
3.957985887472881e-003	1.260424e+000	1.347744e+001	6.000000e+000
3.963845262472882e-003	1.084642e+000	1.347746e+001	6.000000e+000
3.969704637472882e-003	9.088610e-001	1.347743e+001	6.000000e+000
3.975564012472882e-003	7.330797e-001	1.347697e+001	6.000000e+000
3.981423387472882e-003	5.572985e-001	1.347517e+001	6.000000e+000
3.987282762472883e-003	3.815172e-001	1.347145e+001	6.000000e+000
3.993142137472883e-003	2.057360e-001	1.346627e+001	6.000000e+000
3.996137612054251e-003	1.158718e-001	1.346268e+001	6.000000e+000
4.000000004000005e-003	1.243450e-014	1.345730e+001	6.000000e+000
4.000501762280382e-003	1.505275e-002	1.345679e+001	6.000000e+000
4.004454910890612e-003	1.336472e-001	1.345974e+001	6.000000e+000
4.006781209428165e-003	2.034362e-001	1.346258e+001	6.000000e+000
4.010596786234933e-003	3.179035e-001	1.346681e+001	6.000000e+000
4.015981502358186e-003	4.794450e-001	1.347163e+001	6.000000e+000
4.021840877358187e-003	6.552262e-001	1.347526e+001	6.000000e+000
4.027700252358187e-003	8.310074e-001	1.347702e+001	6.000000e+000
4.033559627358187e-003	1.006789e+000	1.347745e+001	6.000000e+000
4.039419002358187e-003	1.182570e+000	1.347746e+001	6.000000e+000
4.179390366674105e-003	5.381711e+000	1.347396e+001	6.000000e+000
4.190652412483199e-003	5.719572e+000	1.345760e+001	6.000000e+000
4.196511787483199e-003	5.895353e+000	1.284099e+001	6.000000e+000
4.202371162483200e-003	6.071135e+000	9.447831e+000	6.000000e+000
4.204729170755926e-003	6.141875e+000	6.176671e+000	6.000000e+000
4.207554196245729e-003	6.226626e+000	1.600729e+000	6.000000e+000
4.207602633943307e-003	6.228079e+000	1.566074e+000	6.000000e+000
4.209210219738487e-003	6.276306e+000	1.555256e+000	6.000000e+000
4.210817805533667e-003	6.324534e+000	1.546340e+000	6.000000e+000
4.212425391328847e-003	6.372762e+000	1.539325e+000	6.000000e+000
4.214032977124027e-003	6.420989e+000	1.534212e+000	6.000000e+000
4.215640562919207e-003	6.469217e+000	1.531000e+000	6.000000e+000
4.217248148714387e-003	6.517444e+000	1.529689e+000	6.000000e+000
4.218855734509567e-003	6.565672e+000	1.530279e+000	6.000000e+000
4.236433859509567e-003	7.093016e+000	1.523061e+000	6.000000e+000
4.365060047751495e-003	1.095180e+001	1.523146e+000	6.000000e+000
4.500335549384187e-003	1.498993e+001	1.523146e+000	6.000000e+000
4.540232072066452e-003	1.379304e+001	1.522639e+000	6.000000e+000
4.580128594748717e-003	1.259614e+001	1.522449e+000	6.000000e+000
4.620025117430982e-003	1.139925e+001	1.522577e+000	6.000000e+000
4.659921640113248e-003	1.020235e+001	1.523022e+000	6.000000e+000
4.699818162795513e-003	9.005456e+000	1.523784e+000	6.000000e+000
4.739714685477779e-003	7.808560e+000	1.524863e+000	6.000000e+000
4.779611208160044e-003	6.611664e+000	1.526259e+000	6.000000e+000
4.790865764614575e-003	6.274027e+000	1.543009e+000	6.000000e+000
4.796725139614575e-003	6.098246e+000	1.569292e+000	6.000000e+000
4.800647657850567e-003	5.980570e+000	2.196026e+000	6.000000e+000
4.802640341621353e-003	5.920790e+000	3.934571e+000	6.000000e+000
4.804066691892406e-003	5.877999e+000	6.843905e+000	6.000000e+000
4.805574819049798e-003	5.832756e+000	1.082298e+001	6.000000e+000
4.806695914124120e-003	5.799123e+000	1.338555e+001	6.000000e+000
4.809056534619049e-003	5.728304e+000	1.342352e+001	6.000000e+000
4.811417155113978e-003	5.657486e+000	1.345302e+001	6.000000e+000
4.813777775608907e-003	5.586667e+000	1.347405e+001	6.000000e+000
4.816138396103837e-003	5.515848e+000	1.348662e+001	6.000000e+000
4.818499016598765e-003	5.445030e+000	1.349071e+001	6.000000e+000
4.820859637093695e-003	5.374211e+000	1.348634e+001	6.000000e+000
4.823220257588624e-003	5.303392e+000	1.347349e+001	6.000000e+000
4.842472489731482e-003	4.725825e+000	1.347511e+001	6.000000e+000
4.861724721874339e-003	4.148258e+000	1.347638e+001	6.000000e+000
4.880976954017197e-003	3.570692e+000	1.347729e+001	6.000000e+000
4.900229186160055e-003	2.993125e+000	1.347786e+001	6.000000e+000
4.919481418302913e-003	2.415558e+000	1.347807e+001	6.000000e+000
4.938733650445771e-003	1.837991e+000	1.347793e+001	6.000000e+000
4.957985882588629e-003	1.260424e+000	1.347744e+001	6.000000e+000
4.963845257588629e-003	1.084642e+000	1.347746e+001	6.000000e+000
4.969704632588629e-003	9.088612e-001	1.347743e+001	6.000000e+000
